!Agilent Technologies,E8358A,US41080382,A.04.25
!Agilent E8358A: A.04.25
!Date: Wednesday, October 26, 2016 13:21:54
!Correction: S11(Full 2 Port SOLT,1,2) S21(Full 2 Port SOLT,1,2) S12(Full 2 Port SOLT,1,2) S22(Full 2 Port SOLT,1,2) 
!S2P File: Measurements: S11, S21, S12, S22:
# Hz S  dB   R 50
900000000 -1.464714e+001 -1.786004e+001 -6.142001e+000 -2.632436e+001 -6.091938e+000 -2.582255e+001 -6.384263e+000 -1.677073e+002
900940000 -1.473973e+001 -1.828852e+001 -6.151327e+000 -2.676350e+001 -6.082402e+000 -2.634779e+001 -6.403264e+000 -1.680006e+002
901880000 -1.483903e+001 -1.867478e+001 -6.160008e+000 -2.718353e+001 -6.071839e+000 -2.680853e+001 -6.423532e+000 -1.683073e+002
902820000 -1.493136e+001 -1.908492e+001 -6.172826e+000 -2.760578e+001 -6.068831e+000 -2.731375e+001 -6.446409e+000 -1.686248e+002
903760000 -1.502681e+001 -1.952085e+001 -6.173779e+000 -2.800195e+001 -6.063396e+000 -2.777362e+001 -6.470425e+000 -1.689074e+002
904700000 -1.512399e+001 -1.994097e+001 -6.182900e+000 -2.840060e+001 -6.055031e+000 -2.825529e+001 -6.490616e+000 -1.691829e+002
905640000 -1.522702e+001 -2.039754e+001 -6.184142e+000 -2.879319e+001 -6.051107e+000 -2.877172e+001 -6.512418e+000 -1.695085e+002
906580000 -1.532088e+001 -2.076689e+001 -6.184649e+000 -2.920544e+001 -6.051758e+000 -2.924151e+001 -6.535499e+000 -1.698111e+002
907520000 -1.542895e+001 -2.120395e+001 -6.185678e+000 -2.956070e+001 -6.051415e+000 -2.972508e+001 -6.558259e+000 -1.700801e+002
908460000 -1.552390e+001 -2.162508e+001 -6.183639e+000 -2.994521e+001 -6.049103e+000 -3.021482e+001 -6.578264e+000 -1.703944e+002
909400000 -1.563298e+001 -2.207060e+001 -6.178711e+000 -3.031159e+001 -6.048964e+000 -3.068599e+001 -6.600458e+000 -1.706953e+002
910340000 -1.573310e+001 -2.248847e+001 -6.174696e+000 -3.069329e+001 -6.046609e+000 -3.114878e+001 -6.626450e+000 -1.709843e+002
911280000 -1.583895e+001 -2.286429e+001 -6.166633e+000 -3.108117e+001 -6.047921e+000 -3.163697e+001 -6.648851e+000 -1.712641e+002
912220000 -1.594453e+001 -2.330172e+001 -6.160246e+000 -3.148234e+001 -6.048730e+000 -3.208871e+001 -6.672683e+000 -1.715688e+002
913160000 -1.605434e+001 -2.373945e+001 -6.150358e+000 -3.187431e+001 -6.052304e+000 -3.254070e+001 -6.691326e+000 -1.718466e+002
914100000 -1.616047e+001 -2.412552e+001 -6.139305e+000 -3.227287e+001 -6.052754e+000 -3.300101e+001 -6.718976e+000 -1.721350e+002
915040000 -1.626769e+001 -2.455960e+001 -6.126629e+000 -3.267356e+001 -6.052672e+000 -3.346194e+001 -6.743367e+000 -1.724325e+002
915980000 -1.637631e+001 -2.493972e+001 -6.118326e+000 -3.311024e+001 -6.052384e+000 -3.389851e+001 -6.761551e+000 -1.727308e+002
916920000 -1.649215e+001 -2.535489e+001 -6.102437e+000 -3.355022e+001 -6.054622e+000 -3.431877e+001 -6.788476e+000 -1.730318e+002
917860000 -1.660596e+001 -2.572548e+001 -6.089573e+000 -3.398796e+001 -6.055877e+000 -3.477055e+001 -6.808144e+000 -1.733037e+002
918800000 -1.672100e+001 -2.619425e+001 -6.076654e+000 -3.445588e+001 -6.056390e+000 -3.521403e+001 -6.827570e+000 -1.735847e+002
919740000 -1.683653e+001 -2.659189e+001 -6.063324e+000 -3.489795e+001 -6.057194e+000 -3.564909e+001 -6.858423e+000 -1.738590e+002
920680000 -1.694674e+001 -2.697686e+001 -6.050682e+000 -3.537822e+001 -6.056730e+000 -3.605434e+001 -6.880171e+000 -1.741319e+002
921620000 -1.706307e+001 -2.735888e+001 -6.035758e+000 -3.583501e+001 -6.055971e+000 -3.651973e+001 -6.897876e+000 -1.744364e+002
922560000 -1.718283e+001 -2.774747e+001 -6.026330e+000 -3.635033e+001 -6.054695e+000 -3.691963e+001 -6.925892e+000 -1.747234e+002
923500000 -1.730322e+001 -2.811836e+001 -6.015200e+000 -3.685691e+001 -6.054373e+000 -3.734800e+001 -6.945411e+000 -1.750148e+002
924440000 -1.742011e+001 -2.853347e+001 -6.009088e+000 -3.737842e+001 -6.051300e+000 -3.777342e+001 -6.971355e+000 -1.752973e+002
925380000 -1.754566e+001 -2.895872e+001 -6.000909e+000 -3.789381e+001 -6.049936e+000 -3.818844e+001 -6.994068e+000 -1.755557e+002
926320000 -1.767312e+001 -2.939048e+001 -5.994325e+000 -3.843154e+001 -6.047736e+000 -3.860126e+001 -7.016923e+000 -1.758456e+002
927260000 -1.780044e+001 -2.970534e+001 -5.991935e+000 -3.894829e+001 -6.044041e+000 -3.903986e+001 -7.043502e+000 -1.761366e+002
928200000 -1.792037e+001 -3.007926e+001 -5.992785e+000 -3.944279e+001 -6.037039e+000 -3.946870e+001 -7.065281e+000 -1.764196e+002
929140000 -1.804020e+001 -3.050913e+001 -5.990300e+000 -4.000128e+001 -6.032860e+000 -3.988147e+001 -7.089882e+000 -1.767028e+002
930080000 -1.818437e+001 -3.087979e+001 -5.991575e+000 -4.051903e+001 -6.029704e+000 -4.029685e+001 -7.114924e+000 -1.769605e+002
931020000 -1.831173e+001 -3.129178e+001 -5.992156e+000 -4.104633e+001 -6.023040e+000 -4.074615e+001 -7.141095e+000 -1.772718e+002
931960000 -1.844797e+001 -3.167270e+001 -6.001056e+000 -4.154944e+001 -6.018910e+000 -4.121244e+001 -7.164327e+000 -1.775364e+002
932900000 -1.857850e+001 -3.200972e+001 -6.009964e+000 -4.205484e+001 -6.013607e+000 -4.164142e+001 -7.186584e+000 -1.778094e+002
933840000 -1.871625e+001 -3.234398e+001 -6.014316e+000 -4.255602e+001 -6.008083e+000 -4.206965e+001 -7.210397e+000 -1.780966e+002
934780000 -1.885589e+001 -3.274501e+001 -6.025755e+000 -4.305748e+001 -6.001495e+000 -4.248358e+001 -7.233405e+000 -1.783553e+002
935720000 -1.899309e+001 -3.311279e+001 -6.036124e+000 -4.352756e+001 -5.999564e+000 -4.296792e+001 -7.259594e+000 -1.786432e+002
936660000 -1.913192e+001 -3.344997e+001 -6.048697e+000 -4.398297e+001 -5.991345e+000 -4.342834e+001 -7.284056e+000 -1.789106e+002
937600000 -1.926679e+001 -3.385057e+001 -6.056973e+000 -4.443035e+001 -5.987269e+000 -4.386233e+001 -7.306001e+000 -1.791938e+002
938540000 -1.942023e+001 -3.418127e+001 -6.068966e+000 -4.489859e+001 -5.984718e+000 -4.433680e+001 -7.331416e+000 -1.794355e+002
939480000 -1.956752e+001 -3.456062e+001 -6.082014e+000 -4.533585e+001 -5.977984e+000 -4.480232e+001 -7.352573e+000 -1.797195e+002
940420000 -1.971842e+001 -3.490512e+001 -6.097713e+000 -4.575092e+001 -5.976237e+000 -4.527620e+001 -7.376727e+000 -1.799893e+002
941360000 -1.987547e+001 -3.527979e+001 -6.107605e+000 -4.613022e+001 -5.971265e+000 -4.569649e+001 -7.402090e+000 1.797446e+002
942300000 -2.002906e+001 -3.554584e+001 -6.119770e+000 -4.655227e+001 -5.968284e+000 -4.617123e+001 -7.423649e+000 1.794693e+002
943240000 -2.018029e+001 -3.591425e+001 -6.128592e+000 -4.691232e+001 -5.967259e+000 -4.663594e+001 -7.449678e+000 1.792236e+002
944180000 -2.034048e+001 -3.628822e+001 -6.139457e+000 -4.729540e+001 -5.962158e+000 -4.713774e+001 -7.478196e+000 1.789343e+002
945120000 -2.050172e+001 -3.665422e+001 -6.144908e+000 -4.763469e+001 -5.962849e+000 -4.759896e+001 -7.497881e+000 1.786687e+002
946060000 -2.066117e+001 -3.697850e+001 -6.147996e+000 -4.802876e+001 -5.962906e+000 -4.804440e+001 -7.525460e+000 1.783903e+002
947000000 -2.083595e+001 -3.728104e+001 -6.154216e+000 -4.832342e+001 -5.959863e+000 -4.852655e+001 -7.550979e+000 1.781389e+002
947940000 -2.100024e+001 -3.762910e+001 -6.156578e+000 -4.866757e+001 -5.958843e+000 -4.900766e+001 -7.571636e+000 1.778611e+002
948880000 -2.117941e+001 -3.794788e+001 -6.155733e+000 -4.898690e+001 -5.961623e+000 -4.945131e+001 -7.602405e+000 1.775935e+002
949820000 -2.134960e+001 -3.824001e+001 -6.151195e+000 -4.934001e+001 -5.960905e+000 -4.990970e+001 -7.625374e+000 1.773266e+002
950760000 -2.153137e+001 -3.854292e+001 -6.151289e+000 -4.964715e+001 -5.957869e+000 -5.037149e+001 -7.648024e+000 1.770684e+002
951700000 -2.171010e+001 -3.882630e+001 -6.143855e+000 -4.997576e+001 -5.957657e+000 -5.082051e+001 -7.674298e+000 1.768111e+002
952640000 -2.189619e+001 -3.911834e+001 -6.133411e+000 -5.031476e+001 -5.961596e+000 -5.128997e+001 -7.703100e+000 1.765711e+002
953580000 -2.208402e+001 -3.941175e+001 -6.126568e+000 -5.066705e+001 -5.964670e+000 -5.173090e+001 -7.728751e+000 1.763049e+002
954520000 -2.227758e+001 -3.967941e+001 -6.112983e+000 -5.099680e+001 -5.965564e+000 -5.217455e+001 -7.755823e+000 1.760543e+002
955460000 -2.246832e+001 -3.995058e+001 -6.095252e+000 -5.134948e+001 -5.966783e+000 -5.260122e+001 -7.779882e+000 1.758244e+002
956400000 -2.266609e+001 -4.021206e+001 -6.081495e+000 -5.171520e+001 -5.966485e+000 -5.305861e+001 -7.809148e+000 1.755762e+002
957340000 -2.286715e+001 -4.045216e+001 -6.062122e+000 -5.210714e+001 -5.967478e+000 -5.349119e+001 -7.833371e+000 1.753444e+002
958280000 -2.307345e+001 -4.069129e+001 -6.044216e+000 -5.250269e+001 -5.970940e+000 -5.393928e+001 -7.855556e+000 1.750896e+002
959220000 -2.328638e+001 -4.092634e+001 -6.022942e+000 -5.290158e+001 -5.974868e+000 -5.436740e+001 -7.883836e+000 1.748366e+002
960160000 -2.349787e+001 -4.113042e+001 -6.000351e+000 -5.329925e+001 -5.972003e+000 -5.479523e+001 -7.908262e+000 1.745818e+002
961100000 -2.371581e+001 -4.136712e+001 -5.984912e+000 -5.375602e+001 -5.972668e+000 -5.526047e+001 -7.936896e+000 1.743416e+002
962040000 -2.393879e+001 -4.153015e+001 -5.964493e+000 -5.422968e+001 -5.972846e+000 -5.564429e+001 -7.960722e+000 1.741080e+002
962980000 -2.415800e+001 -4.179082e+001 -5.937917e+000 -5.469238e+001 -5.971159e+000 -5.610401e+001 -7.986639e+000 1.738972e+002
963920000 -2.439273e+001 -4.196703e+001 -5.920341e+000 -5.517390e+001 -5.977866e+000 -5.652802e+001 -8.013211e+000 1.736413e+002
964860000 -2.463006e+001 -4.208548e+001 -5.900064e+000 -5.566830e+001 -5.969043e+000 -5.695603e+001 -8.038342e+000 1.733831e+002
965800000 -2.486667e+001 -4.221303e+001 -5.883449e+000 -5.615502e+001 -5.968374e+000 -5.739810e+001 -8.064470e+000 1.731520e+002
966740000 -2.510821e+001 -4.236301e+001 -5.865339e+000 -5.670044e+001 -5.967657e+000 -5.781582e+001 -8.088820e+000 1.729246e+002
967680000 -2.536798e+001 -4.246206e+001 -5.850886e+000 -5.723057e+001 -5.969630e+000 -5.828217e+001 -8.117861e+000 1.726843e+002
968620000 -2.562705e+001 -4.256914e+001 -5.834011e+000 -5.776026e+001 -5.970969e+000 -5.869732e+001 -8.144939e+000 1.724354e+002
969560000 -2.589703e+001 -4.268613e+001 -5.828547e+000 -5.835070e+001 -5.966832e+000 -5.911687e+001 -8.169010e+000 1.721864e+002
970500000 -2.616231e+001 -4.273357e+001 -5.816275e+000 -5.891607e+001 -5.964144e+000 -5.954000e+001 -8.197104e+000 1.719493e+002
971440000 -2.644143e+001 -4.276080e+001 -5.808161e+000 -5.949405e+001 -5.957497e+000 -6.000189e+001 -8.225220e+000 1.717354e+002
972380000 -2.673390e+001 -4.276680e+001 -5.803011e+000 -6.009085e+001 -5.958604e+000 -6.042689e+001 -8.252280e+000 1.715022e+002
973320000 -2.702655e+001 -4.280999e+001 -5.802732e+000 -6.062833e+001 -5.955520e+000 -6.087733e+001 -8.283754e+000 1.712539e+002
974260000 -2.732897e+001 -4.274898e+001 -5.804082e+000 -6.122864e+001 -5.957644e+000 -6.129612e+001 -8.314422e+000 1.710268e+002
975200000 -2.763748e+001 -4.265689e+001 -5.805999e+000 -6.178062e+001 -5.952170e+000 -6.173943e+001 -8.342519e+000 1.708272e+002
976140000 -2.795671e+001 -4.256217e+001 -5.811142e+000 -6.236172e+001 -5.947388e+000 -6.218668e+001 -8.370919e+000 1.705977e+002
977080000 -2.828645e+001 -4.252595e+001 -5.820258e+000 -6.291108e+001 -5.946336e+000 -6.265054e+001 -8.396578e+000 1.703661e+002
978020000 -2.863196e+001 -4.231681e+001 -5.827984e+000 -6.348312e+001 -5.944656e+000 -6.308017e+001 -8.427804e+000 1.701318e+002
978960000 -2.898611e+001 -4.209955e+001 -5.835494e+000 -6.402102e+001 -5.937229e+000 -6.352417e+001 -8.460342e+000 1.699382e+002
979900000 -2.935144e+001 -4.174940e+001 -5.848722e+000 -6.455933e+001 -5.942247e+000 -6.396374e+001 -8.486540e+000 1.697305e+002
980840000 -2.973040e+001 -4.139864e+001 -5.862245e+000 -6.507581e+001 -5.939764e+000 -6.442461e+001 -8.518572e+000 1.695341e+002
981780000 -3.011930e+001 -4.110023e+001 -5.879723e+000 -6.559952e+001 -5.936172e+000 -6.485345e+001 -8.546684e+000 1.693119e+002
982720000 -3.052785e+001 -4.065631e+001 -5.899944e+000 -6.610323e+001 -5.932663e+000 -6.532647e+001 -8.572731e+000 1.691040e+002
983660000 -3.094091e+001 -4.007636e+001 -5.914407e+000 -6.656429e+001 -5.933455e+000 -6.576551e+001 -8.602866e+000 1.689231e+002
984600000 -3.137596e+001 -3.940963e+001 -5.927802e+000 -6.704578e+001 -5.935345e+000 -6.622779e+001 -8.631494e+000 1.687235e+002
985540000 -3.183145e+001 -3.868058e+001 -5.946269e+000 -6.750732e+001 -5.930953e+000 -6.668392e+001 -8.660545e+000 1.685311e+002
986480000 -3.229751e+001 -3.775686e+001 -5.969347e+000 -6.794925e+001 -5.929068e+000 -6.711320e+001 -8.687428e+000 1.683086e+002
987420000 -3.281274e+001 -3.682235e+001 -5.985952e+000 -6.838128e+001 -5.929252e+000 -6.755461e+001 -8.718646e+000 1.681327e+002
988360000 -3.331977e+001 -3.573192e+001 -6.004584e+000 -6.879238e+001 -5.928133e+000 -6.803315e+001 -8.744142e+000 1.678851e+002
989300000 -3.383995e+001 -3.438544e+001 -6.021793e+000 -6.919575e+001 -5.931283e+000 -6.845054e+001 -8.773085e+000 1.676872e+002
990240000 -3.440303e+001 -3.282327e+001 -6.037635e+000 -6.957868e+001 -5.932173e+000 -6.889823e+001 -8.807259e+000 1.674986e+002
991180000 -3.498697e+001 -3.098326e+001 -6.048735e+000 -6.996536e+001 -5.933449e+000 -6.933973e+001 -8.838583e+000 1.673063e+002
992120000 -3.557449e+001 -2.890480e+001 -6.064482e+000 -7.036139e+001 -5.927320e+000 -6.979364e+001 -8.866800e+000 1.671061e+002
993060000 -3.619878e+001 -2.632560e+001 -6.078674e+000 -7.070432e+001 -5.926258e+000 -7.024979e+001 -8.896172e+000 1.669089e+002
994000000 -3.680220e+001 -2.346756e+001 -6.090170e+000 -7.104803e+001 -5.929631e+000 -7.068217e+001 -8.925359e+000 1.666947e+002
994940000 -3.744953e+001 -2.002336e+001 -6.096185e+000 -7.138824e+001 -5.933796e+000 -7.113847e+001 -8.961009e+000 1.664993e+002
995880000 -3.807113e+001 -1.590224e+001 -6.104492e+000 -7.173009e+001 -5.931800e+000 -7.156110e+001 -8.989670e+000 1.662929e+002
996820000 -3.868047e+001 -1.173746e+001 -6.107024e+000 -7.205070e+001 -5.933160e+000 -7.200127e+001 -9.024776e+000 1.661414e+002
997760000 -3.927197e+001 -6.389117e+000 -6.114247e+000 -7.240599e+001 -5.930058e+000 -7.242965e+001 -9.053791e+000 1.659182e+002
998700000 -3.976905e+001 -3.479627e-001 -6.115335e+000 -7.274937e+001 -5.932581e+000 -7.288531e+001 -9.084963e+000 1.657242e+002
999640000 -4.016472e+001 6.161569e+000 -6.115466e+000 -7.308036e+001 -5.930921e+000 -7.329541e+001 -9.117767e+000 1.655652e+002
1000580000 -4.041884e+001 1.339713e+001 -6.110734e+000 -7.336812e+001 -5.931492e+000 -7.374914e+001 -9.151067e+000 1.654065e+002
1001520000 -4.057182e+001 2.083753e+001 -6.108318e+000 -7.371893e+001 -5.930081e+000 -7.418818e+001 -9.184587e+000 1.652071e+002
1002460000 -4.059533e+001 2.826926e+001 -6.105474e+000 -7.408257e+001 -5.936186e+000 -7.460506e+001 -9.218015e+000 1.650498e+002
1003400000 -4.029467e+001 3.522868e+001 -6.096502e+000 -7.438754e+001 -5.930053e+000 -7.507299e+001 -9.252327e+000 1.648826e+002
1004340000 -4.002687e+001 4.173243e+001 -6.087893e+000 -7.476031e+001 -5.931437e+000 -7.549250e+001 -9.286948e+000 1.647211e+002
1005280000 -3.962098e+001 4.781911e+001 -6.080855e+000 -7.511616e+001 -5.931353e+000 -7.594614e+001 -9.320798e+000 1.645775e+002
1006220000 -3.913339e+001 5.282278e+001 -6.068713e+000 -7.547562e+001 -5.927778e+000 -7.637442e+001 -9.351125e+000 1.643842e+002
1007160000 -3.862857e+001 5.745900e+001 -6.056025e+000 -7.588613e+001 -5.927962e+000 -7.678529e+001 -9.384915e+000 1.642789e+002
1008100000 -3.808207e+001 6.142682e+001 -6.043427e+000 -7.624317e+001 -5.922699e+000 -7.724993e+001 -9.411306e+000 1.641023e+002
1009040000 -3.753468e+001 6.488242e+001 -6.028484e+000 -7.663562e+001 -5.921277e+000 -7.765870e+001 -9.445988e+000 1.639654e+002
1009980000 -3.697395e+001 6.780521e+001 -6.019991e+000 -7.702959e+001 -5.923609e+000 -7.811012e+001 -9.479618e+000 1.638111e+002
1010920000 -3.645036e+001 7.013131e+001 -6.003950e+000 -7.749629e+001 -5.922688e+000 -7.854174e+001 -9.509684e+000 1.637045e+002
1011860000 -3.592790e+001 7.212943e+001 -5.990567e+000 -7.786253e+001 -5.921388e+000 -7.900803e+001 -9.545086e+000 1.635392e+002
1012800000 -3.545440e+001 7.389758e+001 -5.976980e+000 -7.834757e+001 -5.920212e+000 -7.944401e+001 -9.575490e+000 1.633801e+002
1013740000 -3.498120e+001 7.561091e+001 -5.964841e+000 -7.876821e+001 -5.917000e+000 -7.988858e+001 -9.612323e+000 1.632269e+002
1014680000 -3.454508e+001 7.672979e+001 -5.953152e+000 -7.921636e+001 -5.919044e+000 -8.031003e+001 -9.644108e+000 1.631151e+002
1015620000 -3.409055e+001 7.790606e+001 -5.936528e+000 -7.968948e+001 -5.920992e+000 -8.076145e+001 -9.674032e+000 1.629860e+002
1016560000 -3.367983e+001 7.872753e+001 -5.925553e+000 -8.015903e+001 -5.917605e+000 -8.119919e+001 -9.707139e+000 1.628922e+002
1017500000 -3.329588e+001 7.964998e+001 -5.913511e+000 -8.064539e+001 -5.917336e+000 -8.166475e+001 -9.738643e+000 1.627038e+002
1018440000 -3.292851e+001 8.037458e+001 -5.902728e+000 -8.113062e+001 -5.919439e+000 -8.211155e+001 -9.775299e+000 1.626048e+002
1019380000 -3.255849e+001 8.100046e+001 -5.898033e+000 -8.159172e+001 -5.917488e+000 -8.256057e+001 -9.804297e+000 1.624761e+002
1020320000 -3.220529e+001 8.133775e+001 -5.888754e+000 -8.210575e+001 -5.918591e+000 -8.298860e+001 -9.839982e+000 1.623581e+002
1021260000 -3.189076e+001 8.166004e+001 -5.879801e+000 -8.259972e+001 -5.919334e+000 -8.345071e+001 -9.874446e+000 1.622319e+002
1022200000 -3.157258e+001 8.195801e+001 -5.875407e+000 -8.309818e+001 -5.920859e+000 -8.389667e+001 -9.906891e+000 1.620946e+002
1023140000 -3.126999e+001 8.229861e+001 -5.870197e+000 -8.358485e+001 -5.920366e+000 -8.433173e+001 -9.943121e+000 1.620096e+002
1024080000 -3.097818e+001 8.243524e+001 -5.867049e+000 -8.409105e+001 -5.921258e+000 -8.477988e+001 -9.975377e+000 1.618818e+002
1025020000 -3.069921e+001 8.269592e+001 -5.865057e+000 -8.462212e+001 -5.921227e+000 -8.522194e+001 -1.000884e+001 1.618013e+002
1025960000 -3.042523e+001 8.266563e+001 -5.865577e+000 -8.507638e+001 -5.923805e+000 -8.567414e+001 -1.004506e+001 1.616698e+002
1026900000 -3.016934e+001 8.274346e+001 -5.859217e+000 -8.558368e+001 -5.922550e+000 -8.609580e+001 -1.007803e+001 1.616120e+002
1027840000 -2.992729e+001 8.279604e+001 -5.861230e+000 -8.609530e+001 -5.924805e+000 -8.655531e+001 -1.011262e+001 1.615219e+002
1028780000 -2.968693e+001 8.277646e+001 -5.862748e+000 -8.659241e+001 -5.928558e+000 -8.699908e+001 -1.014945e+001 1.614342e+002
1029720000 -2.945542e+001 8.272220e+001 -5.867481e+000 -8.707189e+001 -5.930080e+000 -8.744372e+001 -1.018183e+001 1.613400e+002
1030660000 -2.924227e+001 8.267902e+001 -5.864234e+000 -8.756491e+001 -5.929895e+000 -8.786653e+001 -1.021927e+001 1.612720e+002
1031600000 -2.900787e+001 8.254749e+001 -5.866361e+000 -8.806703e+001 -5.931486e+000 -8.834741e+001 -1.025247e+001 1.611781e+002
1032540000 -2.880049e+001 8.237693e+001 -5.873836e+000 -8.856383e+001 -5.934165e+000 -8.874205e+001 -1.028753e+001 1.611139e+002
1033480000 -2.860067e+001 8.222755e+001 -5.874105e+000 -8.901244e+001 -5.937159e+000 -8.921175e+001 -1.032225e+001 1.610533e+002
1034420000 -2.838956e+001 8.202094e+001 -5.876140e+000 -8.950381e+001 -5.939424e+000 -8.964507e+001 -1.035556e+001 1.609748e+002
1035360000 -2.821048e+001 8.179639e+001 -5.882472e+000 -8.997079e+001 -5.938694e+000 -9.004103e+001 -1.039176e+001 1.609238e+002
1036300000 -2.801497e+001 8.164485e+001 -5.887740e+000 -9.044144e+001 -5.939558e+000 -9.046948e+001 -1.042461e+001 1.608647e+002
1037240000 -2.783296e+001 8.135578e+001 -5.889282e+000 -9.088870e+001 -5.943672e+000 -9.091122e+001 -1.045536e+001 1.608173e+002
1038180000 -2.766252e+001 8.112360e+001 -5.894493e+000 -9.138412e+001 -5.942039e+000 -9.132772e+001 -1.049057e+001 1.607793e+002
1039120000 -2.749628e+001 8.086630e+001 -5.899131e+000 -9.184715e+001 -5.946434e+000 -9.176563e+001 -1.052610e+001 1.607474e+002
1040060000 -2.732600e+001 8.063781e+001 -5.902814e+000 -9.227727e+001 -5.944540e+000 -9.220278e+001 -1.055502e+001 1.606862e+002
1041000000 -2.716773e+001 8.035505e+001 -5.908983e+000 -9.273205e+001 -5.946276e+000 -9.267052e+001 -1.059346e+001 1.606240e+002
1041940000 -2.701006e+001 8.000516e+001 -5.913771e+000 -9.320374e+001 -5.944329e+000 -9.306664e+001 -1.062125e+001 1.606057e+002
