!Agilent Technologies,E8358A,US41080382,A.04.25
!Agilent E8358A: A.04.25
!Date: Tuesday, October 25, 2016 18:47:29
!Correction: S11(Full 2 Port SOLT,1,2) S21(Full 2 Port SOLT,1,2) S12(Full 2 Port SOLT,1,2) S22(Full 2 Port SOLT,1,2) 
!S2P File: Measurements: S11, S21, S12, S22:
# Hz S  dB   R 50
900000000 -1.358476e+001 3.639309e-001 -6.338120e+000 -2.319263e+001 -6.317866e+000 -2.262972e+001 -5.936368e+000 -1.528191e+002
901880000 -1.370861e+001 -2.886064e-001 -6.360260e+000 -2.401749e+001 -6.296528e+000 -2.352165e+001 -5.972033e+000 -1.534261e+002
903760000 -1.385718e+001 -1.181392e+000 -6.370419e+000 -2.488627e+001 -6.288947e+000 -2.441806e+001 -6.016134e+000 -1.540331e+002
905640000 -1.398905e+001 -1.815927e+000 -6.392370e+000 -2.562932e+001 -6.273382e+000 -2.533007e+001 -6.041017e+000 -1.547004e+002
907520000 -1.414910e+001 -2.558700e+000 -6.379734e+000 -2.641146e+001 -6.276670e+000 -2.624826e+001 -6.090921e+000 -1.552061e+002
909400000 -1.426808e+001 -3.543373e+000 -6.393972e+000 -2.717689e+001 -6.271156e+000 -2.717792e+001 -6.129828e+000 -1.558885e+002
911280000 -1.443327e+001 -4.245788e+000 -6.377747e+000 -2.783521e+001 -6.268684e+000 -2.816464e+001 -6.181813e+000 -1.564193e+002
913160000 -1.457690e+001 -5.162881e+000 -6.381554e+000 -2.875405e+001 -6.269040e+000 -2.897677e+001 -6.218357e+000 -1.570838e+002
915040000 -1.472936e+001 -5.859265e+000 -6.357831e+000 -2.938180e+001 -6.276578e+000 -2.994585e+001 -6.258048e+000 -1.576367e+002
916920000 -1.489058e+001 -6.820885e+000 -6.346594e+000 -3.031977e+001 -6.293896e+000 -3.074254e+001 -6.303467e+000 -1.583659e+002
918800000 -1.503266e+001 -7.388779e+000 -6.325460e+000 -3.101876e+001 -6.285579e+000 -3.159397e+001 -6.349242e+000 -1.589807e+002
920680000 -1.519626e+001 -8.251142e+000 -6.304800e+000 -3.200183e+001 -6.295167e+000 -3.248293e+001 -6.386765e+000 -1.594657e+002
922560000 -1.538156e+001 -8.957395e+000 -6.293011e+000 -3.284148e+001 -6.281982e+000 -3.327392e+001 -6.425891e+000 -1.601756e+002
924440000 -1.554556e+001 -9.809410e+000 -6.266433e+000 -3.379838e+001 -6.289967e+000 -3.417973e+001 -6.479936e+000 -1.606069e+002
926320000 -1.571744e+001 -1.056398e+001 -6.251568e+000 -3.486758e+001 -6.304418e+000 -3.496450e+001 -6.513504e+000 -1.612603e+002
928200000 -1.588414e+001 -1.132412e+001 -6.241344e+000 -3.575782e+001 -6.290329e+000 -3.577009e+001 -6.561760e+000 -1.619315e+002
930080000 -1.605707e+001 -1.217742e+001 -6.242737e+000 -3.675879e+001 -6.288461e+000 -3.660698e+001 -6.602324e+000 -1.625030e+002
931960000 -1.623376e+001 -1.284291e+001 -6.253621e+000 -3.771397e+001 -6.280495e+000 -3.739443e+001 -6.656220e+000 -1.630485e+002
933840000 -1.638099e+001 -1.366221e+001 -6.257723e+000 -3.867386e+001 -6.275959e+000 -3.817289e+001 -6.697652e+000 -1.636266e+002
935720000 -1.659802e+001 -1.430239e+001 -6.284868e+000 -3.965204e+001 -6.258590e+000 -3.902931e+001 -6.737170e+000 -1.641760e+002
937600000 -1.673308e+001 -1.505090e+001 -6.283241e+000 -4.051471e+001 -6.255198e+000 -3.997033e+001 -6.782575e+000 -1.647605e+002
939480000 -1.697297e+001 -1.590208e+001 -6.309632e+000 -4.145850e+001 -6.242834e+000 -4.083986e+001 -6.831153e+000 -1.654921e+002
941360000 -1.717215e+001 -1.663233e+001 -6.318881e+000 -4.227214e+001 -6.237773e+000 -4.174419e+001 -6.872379e+000 -1.658732e+002
943240000 -1.734929e+001 -1.750762e+001 -6.354720e+000 -4.317355e+001 -6.235092e+000 -4.261913e+001 -6.930812e+000 -1.664973e+002
945120000 -1.757000e+001 -1.793518e+001 -6.380972e+000 -4.375952e+001 -6.214607e+000 -4.349536e+001 -6.967290e+000 -1.670838e+002
947000000 -1.776565e+001 -1.885840e+001 -6.378082e+000 -4.457511e+001 -6.224626e+000 -4.435498e+001 -7.029833e+000 -1.676405e+002
948880000 -1.796241e+001 -1.953812e+001 -6.394404e+000 -4.518987e+001 -6.219606e+000 -4.534226e+001 -7.050696e+000 -1.682092e+002
950760000 -1.819289e+001 -2.006222e+001 -6.394801e+000 -4.593844e+001 -6.225142e+000 -4.624710e+001 -7.111003e+000 -1.687325e+002
952640000 -1.841313e+001 -2.092625e+001 -6.403017e+000 -4.651892e+001 -6.216334e+000 -4.711333e+001 -7.161508e+000 -1.693494e+002
954520000 -1.868517e+001 -2.154218e+001 -6.382831e+000 -4.720075e+001 -6.227804e+000 -4.802953e+001 -7.209816e+000 -1.698319e+002
956400000 -1.890149e+001 -2.214948e+001 -6.377941e+000 -4.796169e+001 -6.225989e+000 -4.889808e+001 -7.264060e+000 -1.704432e+002
958280000 -1.914199e+001 -2.297542e+001 -6.333149e+000 -4.860802e+001 -6.232827e+000 -4.973373e+001 -7.311564e+000 -1.708941e+002
960160000 -1.939413e+001 -2.363839e+001 -6.313818e+000 -4.947883e+001 -6.247076e+000 -5.058287e+001 -7.355458e+000 -1.714302e+002
962040000 -1.964126e+001 -2.412393e+001 -6.265657e+000 -5.014120e+001 -6.243750e+000 -5.145850e+001 -7.417512e+000 -1.719372e+002
963920000 -1.992084e+001 -2.479070e+001 -6.246221e+000 -5.104586e+001 -6.246671e+000 -5.228082e+001 -7.457526e+000 -1.724616e+002
965800000 -2.017209e+001 -2.520152e+001 -6.218437e+000 -5.195261e+001 -6.250709e+000 -5.314643e+001 -7.522473e+000 -1.729356e+002
967680000 -2.046856e+001 -2.596046e+001 -6.170420e+000 -5.295959e+001 -6.260105e+000 -5.402098e+001 -7.576968e+000 -1.735041e+002
969560000 -2.072861e+001 -2.647475e+001 -6.145560e+000 -5.400412e+001 -6.255160e+000 -5.470191e+001 -7.632051e+000 -1.739601e+002
971440000 -2.104546e+001 -2.708542e+001 -6.129554e+000 -5.492577e+001 -6.259202e+000 -5.566004e+001 -7.677194e+000 -1.744991e+002
973320000 -2.132855e+001 -2.768936e+001 -6.113888e+000 -5.607893e+001 -6.250161e+000 -5.633483e+001 -7.731664e+000 -1.750613e+002
975200000 -2.164202e+001 -2.828342e+001 -6.116033e+000 -5.707610e+001 -6.248577e+000 -5.725788e+001 -7.801535e+000 -1.754326e+002
977080000 -2.197677e+001 -2.881714e+001 -6.112330e+000 -5.821485e+001 -6.247715e+000 -5.805599e+001 -7.851862e+000 -1.759929e+002
978960000 -2.228173e+001 -2.932897e+001 -6.131126e+000 -5.921406e+001 -6.228904e+000 -5.891850e+001 -7.926033e+000 -1.764514e+002
980840000 -2.264610e+001 -2.986078e+001 -6.144760e+000 -6.032423e+001 -6.237722e+000 -5.975729e+001 -7.973927e+000 -1.769185e+002
982720000 -2.299666e+001 -3.024401e+001 -6.169121e+000 -6.128838e+001 -6.211426e+000 -6.060841e+001 -8.041839e+000 -1.774292e+002
984600000 -2.335132e+001 -3.080075e+001 -6.188064e+000 -6.225117e+001 -6.204024e+000 -6.143528e+001 -8.093775e+000 -1.776686e+002
986480000 -2.375179e+001 -3.145839e+001 -6.224324e+000 -6.323404e+001 -6.208045e+000 -6.234254e+001 -8.153320e+000 -1.783019e+002
988360000 -2.411749e+001 -3.194312e+001 -6.253993e+000 -6.406406e+001 -6.208234e+000 -6.326620e+001 -8.217061e+000 -1.787714e+002
990240000 -2.451356e+001 -3.237354e+001 -6.289948e+000 -6.483489e+001 -6.213400e+000 -6.406258e+001 -8.271134e+000 -1.791526e+002
992120000 -2.493723e+001 -3.280018e+001 -6.306094e+000 -6.560494e+001 -6.208576e+000 -6.505824e+001 -8.327725e+000 -1.796343e+002
994000000 -2.538756e+001 -3.328461e+001 -6.343089e+000 -6.644839e+001 -6.210847e+000 -6.587832e+001 -8.399497e+000 1.799047e+002
995880000 -2.579879e+001 -3.358706e+001 -6.360727e+000 -6.710187e+001 -6.192021e+000 -6.673538e+001 -8.464510e+000 1.795197e+002
997760000 -2.630490e+001 -3.397137e+001 -6.367953e+000 -6.784953e+001 -6.209743e+000 -6.769884e+001 -8.545760e+000 1.791081e+002
999640000 -2.676196e+001 -3.430299e+001 -6.384707e+000 -6.854463e+001 -6.205504e+000 -6.846601e+001 -8.596433e+000 1.786178e+002
1001520000 -2.729971e+001 -3.456209e+001 -6.364264e+000 -6.924221e+001 -6.210859e+000 -6.938564e+001 -8.659039e+000 1.783089e+002
1003400000 -2.782439e+001 -3.469458e+001 -6.392205e+000 -6.986243e+001 -6.225322e+000 -7.017784e+001 -8.732828e+000 1.779360e+002
1005280000 -2.835274e+001 -3.476464e+001 -6.368609e+000 -7.056522e+001 -6.222414e+000 -7.113100e+001 -8.805786e+000 1.775220e+002
1007160000 -2.897545e+001 -3.450415e+001 -6.352126e+000 -7.131833e+001 -6.225967e+000 -7.195650e+001 -8.880849e+000 1.770439e+002
1009040000 -2.961896e+001 -3.475610e+001 -6.338224e+000 -7.201102e+001 -6.230452e+000 -7.284638e+001 -8.950096e+000 1.767316e+002
1010920000 -3.020522e+001 -3.451618e+001 -6.313895e+000 -7.281046e+001 -6.229314e+000 -7.363667e+001 -9.013659e+000 1.764256e+002
1012800000 -3.090013e+001 -3.402036e+001 -6.291362e+000 -7.358103e+001 -6.232667e+000 -7.448878e+001 -9.086857e+000 1.761243e+002
1014680000 -3.162749e+001 -3.356403e+001 -6.271571e+000 -7.450497e+001 -6.243048e+000 -7.533087e+001 -9.154917e+000 1.757119e+002
1016560000 -3.237060e+001 -3.273090e+001 -6.264457e+000 -7.538577e+001 -6.240160e+000 -7.616783e+001 -9.225382e+000 1.753697e+002
1018440000 -3.315911e+001 -3.150078e+001 -6.237354e+000 -7.621040e+001 -6.236094e+000 -7.709503e+001 -9.306026e+000 1.751635e+002
1020320000 -3.400431e+001 -3.021308e+001 -6.230546e+000 -7.706029e+001 -6.242859e+000 -7.787514e+001 -9.375154e+000 1.747812e+002
1022200000 -3.491949e+001 -2.773932e+001 -6.215928e+000 -7.798746e+001 -6.250519e+000 -7.878259e+001 -9.464190e+000 1.744902e+002
1024080000 -3.586109e+001 -2.549415e+001 -6.194346e+000 -7.901853e+001 -6.242458e+000 -7.955090e+001 -9.516996e+000 1.742654e+002
1025960000 -3.679186e+001 -2.131926e+001 -6.206129e+000 -7.988290e+001 -6.238771e+000 -8.052248e+001 -9.611743e+000 1.739591e+002
1027840000 -3.787717e+001 -1.736782e+001 -6.183993e+000 -8.088997e+001 -6.251342e+000 -8.131683e+001 -9.675698e+000 1.738020e+002
1029720000 -3.888370e+001 -1.106056e+001 -6.189813e+000 -8.180906e+001 -6.230262e+000 -8.214410e+001 -9.767778e+000 1.735577e+002
1031600000 -3.984250e+001 -2.782323e+000 -6.186701e+000 -8.274790e+001 -6.252242e+000 -8.299500e+001 -9.838898e+000 1.733570e+002
1033480000 -4.074862e+001 6.644726e+000 -6.211037e+000 -8.363226e+001 -6.239740e+000 -8.371823e+001 -9.907905e+000 1.732325e+002
1035360000 -4.121201e+001 1.837111e+001 -6.194081e+000 -8.456429e+001 -6.245416e+000 -8.476222e+001 -9.992956e+000 1.730187e+002
1037240000 -4.128855e+001 2.973961e+001 -6.208004e+000 -8.562406e+001 -6.239017e+000 -8.541257e+001 -1.005755e+001 1.726846e+002
1039120000 -4.081805e+001 4.040587e+001 -6.209451e+000 -8.638708e+001 -6.244285e+000 -8.638507e+001 -1.016105e+001 1.728464e+002
1041000000 -4.011575e+001 5.098578e+001 -6.229032e+000 -8.739365e+001 -6.246310e+000 -8.728308e+001 -1.021239e+001 1.725548e+002
1042880000 -3.923342e+001 5.853442e+001 -6.227395e+000 -8.814602e+001 -6.240792e+000 -8.801449e+001 -1.029611e+001 1.724897e+002
1044760000 -3.833700e+001 6.423895e+001 -6.235773e+000 -8.910455e+001 -6.258564e+000 -8.896875e+001 -1.036354e+001 1.724352e+002
1046640000 -3.743453e+001 6.939468e+001 -6.245811e+000 -8.989995e+001 -6.266024e+000 -8.970192e+001 -1.046319e+001 1.723450e+002
1048520000 -3.655183e+001 7.286844e+001 -6.242550e+000 -9.080770e+001 -6.265833e+000 -9.065620e+001 -1.053677e+001 1.724036e+002
1050400000 -3.572057e+001 7.617632e+001 -6.257431e+000 -9.168954e+001 -6.267142e+000 -9.146255e+001 -1.060816e+001 1.723028e+002
1052280000 -3.497090e+001 7.769491e+001 -6.272044e+000 -9.238367e+001 -6.275354e+000 -9.227705e+001 -1.070101e+001 1.724393e+002
1054160000 -3.423872e+001 7.965891e+001 -6.284945e+000 -9.347834e+001 -6.271632e+000 -9.307148e+001 -1.076974e+001 1.722988e+002
1056040000 -3.359972e+001 8.084753e+001 -6.283001e+000 -9.420030e+001 -6.266499e+000 -9.402386e+001 -1.083708e+001 1.724086e+002
1057920000 -3.300669e+001 8.142637e+001 -6.291174e+000 -9.508469e+001 -6.274076e+000 -9.470915e+001 -1.091233e+001 1.725525e+002
1059800000 -3.243342e+001 8.256131e+001 -6.313389e+000 -9.589162e+001 -6.254430e+000 -9.567641e+001 -1.099014e+001 1.725875e+002
1061680000 -3.185861e+001 8.255413e+001 -6.305587e+000 -9.670170e+001 -6.273697e+000 -9.642964e+001 -1.104821e+001 1.728178e+002
1063560000 -3.138137e+001 8.287349e+001 -6.336070e+000 -9.751022e+001 -6.267367e+000 -9.713117e+001 -1.112498e+001 1.728313e+002
1065440000 -3.091192e+001 8.299411e+001 -6.324785e+000 -9.826403e+001 -6.274589e+000 -9.817601e+001 -1.120216e+001 1.729862e+002
1067320000 -3.045566e+001 8.320780e+001 -6.355633e+000 -9.905989e+001 -6.266538e+000 -9.893665e+001 -1.128661e+001 1.731378e+002
1069200000 -3.004137e+001 8.324799e+001 -6.343812e+000 -9.984806e+001 -6.265337e+000 -9.982348e+001 -1.134913e+001 1.733830e+002
1071080000 -2.970084e+001 8.324812e+001 -6.341875e+000 -1.007204e+002 -6.266587e+000 -1.006451e+002 -1.139636e+001 1.735756e+002
1072960000 -2.935262e+001 8.307202e+001 -6.365005e+000 -1.013262e+002 -6.266778e+000 -1.015279e+002 -1.146805e+001 1.738634e+002
1074840000 -2.901654e+001 8.266049e+001 -6.354123e+000 -1.021913e+002 -6.260601e+000 -1.023057e+002 -1.150172e+001 1.741427e+002
1076720000 -2.872779e+001 8.263129e+001 -6.358912e+000 -1.029198e+002 -6.258407e+000 -1.032315e+002 -1.156525e+001 1.743717e+002
1078600000 -2.839742e+001 8.227625e+001 -6.330728e+000 -1.036905e+002 -6.260069e+000 -1.040864e+002 -1.160680e+001 1.747748e+002
1080480000 -2.811197e+001 8.196576e+001 -6.352160e+000 -1.044704e+002 -6.262581e+000 -1.048774e+002 -1.167306e+001 1.751137e+002
1082360000 -2.788684e+001 8.174660e+001 -6.313118e+000 -1.052089e+002 -6.265654e+000 -1.057917e+002 -1.171312e+001 1.753369e+002
1084240000 -2.762910e+001 8.131897e+001 -6.308076e+000 -1.060736e+002 -6.274120e+000 -1.066178e+002 -1.175347e+001 1.757885e+002
1086120000 -2.738862e+001 8.099788e+001 -6.300487e+000 -1.069128e+002 -6.267978e+000 -1.075064e+002 -1.179174e+001 1.761114e+002
1088000000 -2.720316e+001 8.043293e+001 -6.287517e+000 -1.077853e+002 -6.269056e+000 -1.082821e+002 -1.180140e+001 1.765261e+002
1089880000 -2.697953e+001 8.002917e+001 -6.274975e+000 -1.085275e+002 -6.260903e+000 -1.091802e+002 -1.184737e+001 1.769402e+002
1091760000 -2.681646e+001 7.941707e+001 -6.266278e+000 -1.094819e+002 -6.291357e+000 -1.099910e+002 -1.186898e+001 1.773608e+002
1093640000 -2.661146e+001 7.914391e+001 -6.258026e+000 -1.103727e+002 -6.266575e+000 -1.108627e+002 -1.189229e+001 1.777411e+002
1095520000 -2.646444e+001 7.847889e+001 -6.223033e+000 -1.112662e+002 -6.276624e+000 -1.117964e+002 -1.190178e+001 1.781629e+002
1097400000 -2.630956e+001 7.787081e+001 -6.237793e+000 -1.121827e+002 -6.287439e+000 -1.125452e+002 -1.191038e+001 1.786654e+002
1099280000 -2.618797e+001 7.717168e+001 -6.212704e+000 -1.131661e+002 -6.287057e+000 -1.134099e+002 -1.190747e+001 1.791709e+002
1101160000 -2.605989e+001 7.682851e+001 -6.235001e+000 -1.141443e+002 -6.292937e+000 -1.142498e+002 -1.191042e+001 1.796014e+002
1103040000 -2.590575e+001 7.598228e+001 -6.234974e+000 -1.150271e+002 -6.300662e+000 -1.151388e+002 -1.188755e+001 -1.798815e+002
1104920000 -2.581777e+001 7.554687e+001 -6.230335e+000 -1.160921e+002 -6.308840e+000 -1.158077e+002 -1.188981e+001 -1.794324e+002
1106800000 -2.567958e+001 7.484869e+001 -6.249481e+000 -1.169509e+002 -6.294786e+000 -1.167504e+002 -1.186516e+001 -1.790746e+002
1108680000 -2.557302e+001 7.415833e+001 -6.247506e+000 -1.178480e+002 -6.302970e+000 -1.175337e+002 -1.182598e+001 -1.784069e+002
1110560000 -2.550421e+001 7.357942e+001 -6.261712e+000 -1.187471e+002 -6.318388e+000 -1.183981e+002 -1.182831e+001 -1.780891e+002
1112440000 -2.541775e+001 7.280056e+001 -6.284242e+000 -1.196667e+002 -6.318143e+000 -1.190790e+002 -1.177478e+001 -1.775422e+002
1114320000 -2.533193e+001 7.201907e+001 -6.294085e+000 -1.205251e+002 -6.312920e+000 -1.199046e+002 -1.173920e+001 -1.771955e+002
1116200000 -2.525313e+001 7.143708e+001 -6.314543e+000 -1.213238e+002 -6.307547e+000 -1.207538e+002 -1.170848e+001 -1.766300e+002
1118080000 -2.518700e+001 7.073055e+001 -6.341942e+000 -1.222582e+002 -6.310300e+000 -1.215974e+002 -1.164904e+001 -1.763957e+002
1119960000 -2.513943e+001 6.993246e+001 -6.358022e+000 -1.229930e+002 -6.307092e+000 -1.224130e+002 -1.160287e+001 -1.758505e+002
1121840000 -2.509393e+001 6.937885e+001 -6.379094e+000 -1.238618e+002 -6.297318e+000 -1.231815e+002 -1.154478e+001 -1.754553e+002
1123720000 -2.501522e+001 6.858599e+001 -6.398207e+000 -1.245277e+002 -6.281550e+000 -1.241020e+002 -1.147569e+001 -1.750612e+002
1125600000 -2.498471e+001 6.780278e+001 -6.410980e+000 -1.253588e+002 -6.286665e+000 -1.249347e+002 -1.140203e+001 -1.746574e+002
1127480000 -2.494720e+001 6.708569e+001 -6.419530e+000 -1.261189e+002 -6.290298e+000 -1.257492e+002 -1.133617e+001 -1.742617e+002
1129360000 -2.491327e+001 6.628645e+001 -6.419127e+000 -1.267900e+002 -6.276443e+000 -1.267157e+002 -1.125515e+001 -1.740324e+002
1131240000 -2.489722e+001 6.549509e+001 -6.425444e+000 -1.274501e+002 -6.286666e+000 -1.274825e+002 -1.117184e+001 -1.738298e+002
1133120000 -2.486381e+001 6.481843e+001 -6.422351e+000 -1.281485e+002 -6.271613e+000 -1.283057e+002 -1.108145e+001 -1.734414e+002
1135000000 -2.487495e+001 6.423216e+001 -6.425534e+000 -1.288671e+002 -6.273036e+000 -1.290991e+002 -1.099683e+001 -1.731665e+002
1136880000 -2.484882e+001 6.341319e+001 -6.415117e+000 -1.295610e+002 -6.280044e+000 -1.300875e+002 -1.091390e+001 -1.729819e+002
1138760000 -2.485668e+001 6.244865e+001 -6.402735e+000 -1.303849e+002 -6.285336e+000 -1.309016e+002 -1.082733e+001 -1.727850e+002
1140640000 -2.485791e+001 6.162697e+001 -6.396588e+000 -1.310867e+002 -6.283163e+000 -1.318607e+002 -1.072590e+001 -1.725611e+002
1142520000 -2.485699e+001 6.093336e+001 -6.357913e+000 -1.318479e+002 -6.274508e+000 -1.326019e+002 -1.061911e+001 -1.725535e+002
1144400000 -2.491670e+001 6.008960e+001 -6.353398e+000 -1.327034e+002 -6.274024e+000 -1.334753e+002 -1.052627e+001 -1.723706e+002
1146280000 -2.491268e+001 5.941069e+001 -6.331754e+000 -1.334983e+002 -6.275030e+000 -1.343539e+002 -1.043756e+001 -1.721726e+002
1148160000 -2.495738e+001 5.850840e+001 -6.307129e+000 -1.344140e+002 -6.279974e+000 -1.352040e+002 -1.033383e+001 -1.722402e+002
1150040000 -2.498887e+001 5.766785e+001 -6.296132e+000 -1.352389e+002 -6.294877e+000 -1.361008e+002 -1.023143e+001 -1.721432e+002
1151920000 -2.503347e+001 5.692431e+001 -6.281324e+000 -1.361298e+002 -6.293381e+000 -1.368895e+002 -1.013485e+001 -1.721017e+002
1153800000 -2.508187e+001 5.596671e+001 -6.257834e+000 -1.370337e+002 -6.275651e+000 -1.377461e+002 -1.001554e+001 -1.722201e+002
1155680000 -2.514824e+001 5.537378e+001 -6.248820e+000 -1.379862e+002 -6.294731e+000 -1.385227e+002 -9.915985e+000 -1.721387e+002
1157560000 -2.519646e+001 5.441689e+001 -6.255028e+000 -1.388308e+002 -6.297567e+000 -1.394150e+002 -9.813324e+000 -1.722314e+002
1159440000 -2.529131e+001 5.354311e+001 -6.251230e+000 -1.397989e+002 -6.289003e+000 -1.402371e+002 -9.704803e+000 -1.722768e+002
1161320000 -2.537169e+001 5.277000e+001 -6.230205e+000 -1.407226e+002 -6.295146e+000 -1.410708e+002 -9.584527e+000 -1.723822e+002
1163200000 -2.541596e+001 5.184383e+001 -6.239742e+000 -1.416657e+002 -6.294868e+000 -1.419025e+002 -9.468507e+000 -1.726034e+002
1165080000 -2.551525e+001 5.111938e+001 -6.250859e+000 -1.425357e+002 -6.303085e+000 -1.426489e+002 -9.365920e+000 -1.726342e+002
1166960000 -2.558317e+001 5.018518e+001 -6.248547e+000 -1.434739e+002 -6.293329e+000 -1.435534e+002 -9.247817e+000 -1.728905e+002
1168840000 -2.571900e+001 4.904917e+001 -6.261294e+000 -1.443682e+002 -6.301733e+000 -1.444046e+002 -9.152460e+000 -1.731361e+002
1170720000 -2.582745e+001 4.843364e+001 -6.253881e+000 -1.453198e+002 -6.292065e+000 -1.451968e+002 -9.051944e+000 -1.731707e+002
1172600000 -2.595760e+001 4.747054e+001 -6.277250e+000 -1.463009e+002 -6.292660e+000 -1.460037e+002 -8.931479e+000 -1.734743e+002
1174480000 -2.608205e+001 4.644082e+001 -6.285398e+000 -1.470973e+002 -6.292733e+000 -1.468635e+002 -8.826601e+000 -1.737836e+002
1176360000 -2.618086e+001 4.556644e+001 -6.292519e+000 -1.479086e+002 -6.278685e+000 -1.476323e+002 -8.714569e+000 -1.740095e+002
1178240000 -2.632370e+001 4.462979e+001 -6.314278e+000 -1.489004e+002 -6.282117e+000 -1.485571e+002 -8.622791e+000 -1.743686e+002
1180120000 -2.643731e+001 4.368349e+001 -6.315734e+000 -1.497561e+002 -6.285359e+000 -1.493222e+002 -8.505041e+000 -1.745803e+002
1182000000 -2.657697e+001 4.277122e+001 -6.325838e+000 -1.505953e+002 -6.283504e+000 -1.501656e+002 -8.390805e+000 -1.749553e+002
