!Agilent Technologies,E8358A,US41080382,A.04.25
!Agilent E8358A: A.04.25
!Date: Tuesday, October 25, 2016 18:46:33
!Correction: S11(Full 2 Port SOLT,1,2) S21(Full 2 Port SOLT,1,2) S12(Full 2 Port SOLT,1,2) S22(Full 2 Port SOLT,1,2) 
!S2P File: Measurements: S11, S21, S12, S22:
# Hz S  dB   R 50
900000000 -1.359002e+001 4.040353e-001 -6.384351e+000 -2.305352e+001 -6.363842e+000 -2.243110e+001 -5.927990e+000 -1.505500e+002
901880000 -1.371597e+001 -4.536140e-001 -6.396997e+000 -2.394924e+001 -6.346962e+000 -2.338111e+001 -5.964489e+000 -1.513063e+002
903760000 -1.385446e+001 -1.144258e+000 -6.412997e+000 -2.478194e+001 -6.323826e+000 -2.430713e+001 -6.012162e+000 -1.518347e+002
905640000 -1.400940e+001 -1.956937e+000 -6.419565e+000 -2.541585e+001 -6.317048e+000 -2.512709e+001 -6.032214e+000 -1.525174e+002
907520000 -1.414773e+001 -2.767434e+000 -6.418397e+000 -2.629769e+001 -6.317954e+000 -2.606691e+001 -6.094088e+000 -1.529633e+002
909400000 -1.430266e+001 -3.534775e+000 -6.433576e+000 -2.708033e+001 -6.311136e+000 -2.698008e+001 -6.121631e+000 -1.536986e+002
911280000 -1.443614e+001 -4.389174e+000 -6.416518e+000 -2.775718e+001 -6.290653e+000 -2.796329e+001 -6.166795e+000 -1.542653e+002
913160000 -1.457843e+001 -5.227292e+000 -6.407417e+000 -2.850603e+001 -6.310665e+000 -2.887500e+001 -6.205441e+000 -1.548711e+002
915040000 -1.474606e+001 -5.952477e+000 -6.399030e+000 -2.927496e+001 -6.309362e+000 -2.976750e+001 -6.263965e+000 -1.554833e+002
916920000 -1.488945e+001 -6.603666e+000 -6.376776e+000 -3.009321e+001 -6.319059e+000 -3.067246e+001 -6.294694e+000 -1.560663e+002
918800000 -1.507527e+001 -7.517462e+000 -6.365179e+000 -3.089929e+001 -6.313595e+000 -3.134481e+001 -6.328053e+000 -1.567310e+002
920680000 -1.520806e+001 -8.429183e+000 -6.346934e+000 -3.182429e+001 -6.325648e+000 -3.229639e+001 -6.379234e+000 -1.572050e+002
922560000 -1.537295e+001 -9.193496e+000 -6.317562e+000 -3.269124e+001 -6.321958e+000 -3.306655e+001 -6.418848e+000 -1.578633e+002
924440000 -1.555064e+001 -9.869489e+000 -6.302871e+000 -3.359971e+001 -6.318652e+000 -3.397626e+001 -6.462276e+000 -1.584796e+002
926320000 -1.570795e+001 -1.063261e+001 -6.285031e+000 -3.457531e+001 -6.327020e+000 -3.470240e+001 -6.501305e+000 -1.589718e+002
928200000 -1.586699e+001 -1.139866e+001 -6.269157e+000 -3.550434e+001 -6.305402e+000 -3.548228e+001 -6.539493e+000 -1.596082e+002
930080000 -1.604686e+001 -1.225667e+001 -6.267169e+000 -3.652126e+001 -6.312680e+000 -3.639216e+001 -6.590431e+000 -1.601334e+002
931960000 -1.621769e+001 -1.310585e+001 -6.279207e+000 -3.754597e+001 -6.286952e+000 -3.720083e+001 -6.627354e+000 -1.607826e+002
933840000 -1.640907e+001 -1.375506e+001 -6.281538e+000 -3.856108e+001 -6.304285e+000 -3.806266e+001 -6.683969e+000 -1.613359e+002
935720000 -1.658644e+001 -1.455556e+001 -6.300278e+000 -3.951255e+001 -6.292646e+000 -3.874553e+001 -6.718268e+000 -1.618859e+002
937600000 -1.676736e+001 -1.536044e+001 -6.313242e+000 -4.042171e+001 -6.270722e+000 -3.972079e+001 -6.774437e+000 -1.623655e+002
939480000 -1.693909e+001 -1.591540e+001 -6.328629e+000 -4.119412e+001 -6.259452e+000 -4.060894e+001 -6.812670e+000 -1.630633e+002
941360000 -1.715442e+001 -1.671215e+001 -6.347352e+000 -4.210011e+001 -6.249058e+000 -4.153358e+001 -6.867154e+000 -1.635492e+002
943240000 -1.736894e+001 -1.745310e+001 -6.371429e+000 -4.292124e+001 -6.253290e+000 -4.245937e+001 -6.897207e+000 -1.640387e+002
945120000 -1.757648e+001 -1.818935e+001 -6.398896e+000 -4.370286e+001 -6.232899e+000 -4.325624e+001 -6.947728e+000 -1.646396e+002
947000000 -1.776958e+001 -1.888708e+001 -6.404177e+000 -4.439217e+001 -6.226039e+000 -4.411931e+001 -6.982494e+000 -1.651750e+002
948880000 -1.800717e+001 -1.957640e+001 -6.414010e+000 -4.511793e+001 -6.228086e+000 -4.510631e+001 -7.014451e+000 -1.658065e+002
950760000 -1.821128e+001 -2.023349e+001 -6.418631e+000 -4.586156e+001 -6.239760e+000 -4.600581e+001 -7.096275e+000 -1.662795e+002
952640000 -1.843892e+001 -2.107630e+001 -6.416443e+000 -4.639115e+001 -6.236814e+000 -4.691134e+001 -7.127769e+000 -1.668464e+002
954520000 -1.864899e+001 -2.159837e+001 -6.402467e+000 -4.708424e+001 -6.241139e+000 -4.784039e+001 -7.181826e+000 -1.673426e+002
956400000 -1.891691e+001 -2.236920e+001 -6.378788e+000 -4.773131e+001 -6.241663e+000 -4.864504e+001 -7.232546e+000 -1.678813e+002
958280000 -1.913828e+001 -2.299282e+001 -6.362126e+000 -4.849107e+001 -6.240275e+000 -4.956870e+001 -7.289162e+000 -1.684295e+002
960160000 -1.939458e+001 -2.349835e+001 -6.328447e+000 -4.922611e+001 -6.249684e+000 -5.042041e+001 -7.321996e+000 -1.688506e+002
962040000 -1.967221e+001 -2.401144e+001 -6.285969e+000 -5.004712e+001 -6.238464e+000 -5.122691e+001 -7.378746e+000 -1.694505e+002
963920000 -1.990090e+001 -2.501767e+001 -6.265490e+000 -5.088105e+001 -6.256979e+000 -5.210238e+001 -7.426718e+000 -1.698011e+002
965800000 -2.016179e+001 -2.535543e+001 -6.220667e+000 -5.168908e+001 -6.252377e+000 -5.291967e+001 -7.477650e+000 -1.704159e+002
967680000 -2.047268e+001 -2.600170e+001 -6.181242e+000 -5.274027e+001 -6.247611e+000 -5.377564e+001 -7.523522e+000 -1.707941e+002
969560000 -2.073167e+001 -2.654807e+001 -6.145364e+000 -5.368905e+001 -6.258010e+000 -5.445097e+001 -7.587832e+000 -1.713644e+002
971440000 -2.104046e+001 -2.718845e+001 -6.136673e+000 -5.480426e+001 -6.252971e+000 -5.538148e+001 -7.653155e+000 -1.718719e+002
973320000 -2.133577e+001 -2.776710e+001 -6.124077e+000 -5.576637e+001 -6.246890e+000 -5.619540e+001 -7.691163e+000 -1.723350e+002
975200000 -2.165785e+001 -2.823922e+001 -6.114478e+000 -5.686361e+001 -6.246041e+000 -5.707483e+001 -7.753068e+000 -1.728740e+002
977080000 -2.197118e+001 -2.879571e+001 -6.116753e+000 -5.794047e+001 -6.243179e+000 -5.782347e+001 -7.796350e+000 -1.733079e+002
978960000 -2.229544e+001 -2.945102e+001 -6.124021e+000 -5.903348e+001 -6.226187e+000 -5.867509e+001 -7.860636e+000 -1.737378e+002
980840000 -2.265211e+001 -2.988315e+001 -6.135330e+000 -6.007116e+001 -6.229465e+000 -5.950987e+001 -7.910959e+000 -1.741088e+002
982720000 -2.300586e+001 -3.039497e+001 -6.157835e+000 -6.100595e+001 -6.204236e+000 -6.034287e+001 -7.978519e+000 -1.746858e+002
984600000 -2.336750e+001 -3.094494e+001 -6.179021e+000 -6.209493e+001 -6.199166e+000 -6.125761e+001 -8.037159e+000 -1.749355e+002
986480000 -2.374529e+001 -3.141949e+001 -6.201471e+000 -6.294193e+001 -6.202310e+000 -6.204081e+001 -8.090953e+000 -1.755043e+002
988360000 -2.412563e+001 -3.205354e+001 -6.228721e+000 -6.386338e+001 -6.190479e+000 -6.302643e+001 -8.145148e+000 -1.758805e+002
990240000 -2.452423e+001 -3.247272e+001 -6.270197e+000 -6.471843e+001 -6.187876e+000 -6.394228e+001 -8.191075e+000 -1.763488e+002
992120000 -2.493692e+001 -3.295718e+001 -6.279426e+000 -6.555352e+001 -6.184514e+000 -6.481398e+001 -8.259077e+000 -1.767852e+002
994000000 -2.538795e+001 -3.344328e+001 -6.322711e+000 -6.630605e+001 -6.191564e+000 -6.573798e+001 -8.330656e+000 -1.771822e+002
995880000 -2.583504e+001 -3.367271e+001 -6.336664e+000 -6.695902e+001 -6.192563e+000 -6.652519e+001 -8.377555e+000 -1.776326e+002
997760000 -2.630416e+001 -3.396416e+001 -6.352553e+000 -6.765078e+001 -6.190216e+000 -6.748418e+001 -8.452388e+000 -1.779641e+002
999640000 -2.678550e+001 -3.442215e+001 -6.356127e+000 -6.840444e+001 -6.191627e+000 -6.825346e+001 -8.515200e+000 -1.785406e+002
1001520000 -2.728441e+001 -3.479420e+001 -6.348617e+000 -6.903918e+001 -6.194088e+000 -6.921471e+001 -8.586008e+000 -1.787242e+002
1003400000 -2.782806e+001 -3.498822e+001 -6.367181e+000 -6.967955e+001 -6.207209e+000 -7.006622e+001 -8.636973e+000 -1.792548e+002
1005280000 -2.840765e+001 -3.507230e+001 -6.346713e+000 -7.045399e+001 -6.194075e+000 -7.092136e+001 -8.719316e+000 -1.795608e+002
1007160000 -2.898398e+001 -3.517727e+001 -6.336388e+000 -7.119501e+001 -6.196905e+000 -7.187337e+001 -8.757634e+000 -1.799996e+002
1009040000 -2.962423e+001 -3.493046e+001 -6.314794e+000 -7.184063e+001 -6.204640e+000 -7.264388e+001 -8.847617e+000 1.797271e+002
1010920000 -3.021416e+001 -3.504712e+001 -6.298215e+000 -7.266776e+001 -6.204401e+000 -7.346861e+001 -8.909721e+000 1.794365e+002
1012800000 -3.089180e+001 -3.472701e+001 -6.265919e+000 -7.343974e+001 -6.200060e+000 -7.431860e+001 -8.973306e+000 1.792033e+002
1014680000 -3.163118e+001 -3.408399e+001 -6.257038e+000 -7.426904e+001 -6.205804e+000 -7.517802e+001 -9.043228e+000 1.787846e+002
1016560000 -3.231097e+001 -3.362718e+001 -6.234244e+000 -7.519823e+001 -6.207947e+000 -7.599763e+001 -9.110826e+000 1.785173e+002
1018440000 -3.314715e+001 -3.241112e+001 -6.201150e+000 -7.608578e+001 -6.195404e+000 -7.693605e+001 -9.186291e+000 1.782253e+002
1020320000 -3.399104e+001 -3.110647e+001 -6.196514e+000 -7.698338e+001 -6.196946e+000 -7.773290e+001 -9.229424e+000 1.779816e+002
1022200000 -3.490137e+001 -2.908796e+001 -6.183795e+000 -7.791370e+001 -6.196085e+000 -7.866561e+001 -9.313776e+000 1.776576e+002
1024080000 -3.574202e+001 -2.659850e+001 -6.167441e+000 -7.885368e+001 -6.211003e+000 -7.943918e+001 -9.382975e+000 1.774230e+002
1025960000 -3.675658e+001 -2.280976e+001 -6.165116e+000 -7.980858e+001 -6.199835e+000 -8.031201e+001 -9.452809e+000 1.770858e+002
1027840000 -3.783609e+001 -1.838268e+001 -6.151179e+000 -8.074586e+001 -6.196972e+000 -8.118028e+001 -9.502826e+000 1.770341e+002
1029720000 -3.886049e+001 -1.267345e+001 -6.145080e+000 -8.168744e+001 -6.190845e+000 -8.197563e+001 -9.586905e+000 1.767122e+002
1031600000 -3.979805e+001 -4.787853e+000 -6.146297e+000 -8.260715e+001 -6.201599e+000 -8.284465e+001 -9.658508e+000 1.764908e+002
1033480000 -4.063716e+001 4.864187e+000 -6.153612e+000 -8.348145e+001 -6.198068e+000 -8.361472e+001 -9.732431e+000 1.763828e+002
1035360000 -4.119853e+001 1.620529e+001 -6.141793e+000 -8.448896e+001 -6.186152e+000 -8.454637e+001 -9.803499e+000 1.762846e+002
1037240000 -4.129072e+001 2.830733e+001 -6.169935e+000 -8.545437e+001 -6.191591e+000 -8.536491e+001 -9.865181e+000 1.760950e+002
1039120000 -4.091396e+001 3.900595e+001 -6.151287e+000 -8.633438e+001 -6.193542e+000 -8.625369e+001 -9.945582e+000 1.760563e+002
1041000000 -4.039814e+001 4.956132e+001 -6.178490e+000 -8.726257e+001 -6.196656e+000 -8.712753e+001 -1.000371e+001 1.758871e+002
1042880000 -3.937632e+001 5.704108e+001 -6.170917e+000 -8.806875e+001 -6.195577e+000 -8.794420e+001 -1.008634e+001 1.756982e+002
1044760000 -3.842660e+001 6.323474e+001 -6.185277e+000 -8.903939e+001 -6.212563e+000 -8.891363e+001 -1.014927e+001 1.756818e+002
1046640000 -3.751902e+001 6.800548e+001 -6.180976e+000 -8.986751e+001 -6.208877e+000 -8.967339e+001 -1.020380e+001 1.756548e+002
1048520000 -3.664267e+001 7.183432e+001 -6.183980e+000 -9.080740e+001 -6.200539e+000 -9.055507e+001 -1.028773e+001 1.756738e+002
1050400000 -3.581034e+001 7.495320e+001 -6.206200e+000 -9.163652e+001 -6.203982e+000 -9.134138e+001 -1.036334e+001 1.755974e+002
1052280000 -3.498954e+001 7.658440e+001 -6.209200e+000 -9.244715e+001 -6.210860e+000 -9.221518e+001 -1.043279e+001 1.755958e+002
1054160000 -3.430071e+001 7.866638e+001 -6.216150e+000 -9.332770e+001 -6.211562e+000 -9.304191e+001 -1.049237e+001 1.757428e+002
1056040000 -3.365325e+001 7.999924e+001 -6.209521e+000 -9.422421e+001 -6.201516e+000 -9.389857e+001 -1.055563e+001 1.757052e+002
1057920000 -3.304191e+001 8.047948e+001 -6.233402e+000 -9.504089e+001 -6.215018e+000 -9.475507e+001 -1.061817e+001 1.756801e+002
1059800000 -3.243843e+001 8.146843e+001 -6.235728e+000 -9.585910e+001 -6.197898e+000 -9.547689e+001 -1.067145e+001 1.759013e+002
1061680000 -3.188839e+001 8.216068e+001 -6.262365e+000 -9.668097e+001 -6.207244e+000 -9.644336e+001 -1.074729e+001 1.760486e+002
1063560000 -3.139104e+001 8.217339e+001 -6.261588e+000 -9.746010e+001 -6.201314e+000 -9.724048e+001 -1.081413e+001 1.760276e+002
1065440000 -3.091486e+001 8.265833e+001 -6.269884e+000 -9.835189e+001 -6.202237e+000 -9.814246e+001 -1.085706e+001 1.762370e+002
1067320000 -3.050026e+001 8.274479e+001 -6.281590e+000 -9.908498e+001 -6.200681e+000 -9.895960e+001 -1.091000e+001 1.764403e+002
1069200000 -3.003837e+001 8.292059e+001 -6.267150e+000 -9.991365e+001 -6.191598e+000 -9.983665e+001 -1.097203e+001 1.765554e+002
1071080000 -2.968954e+001 8.279772e+001 -6.285715e+000 -1.007260e+002 -6.193444e+000 -1.007075e+002 -1.100566e+001 1.766864e+002
1072960000 -2.933936e+001 8.273717e+001 -6.290006e+000 -1.014685e+002 -6.201931e+000 -1.015867e+002 -1.107125e+001 1.769809e+002
1074840000 -2.902024e+001 8.228902e+001 -6.284960e+000 -1.022902e+002 -6.188630e+000 -1.023996e+002 -1.109184e+001 1.771584e+002
1076720000 -2.870151e+001 8.223274e+001 -6.288057e+000 -1.029534e+002 -6.185522e+000 -1.033008e+002 -1.115880e+001 1.774305e+002
1078600000 -2.838552e+001 8.199937e+001 -6.271007e+000 -1.037753e+002 -6.188320e+000 -1.041860e+002 -1.119633e+001 1.777448e+002
1080480000 -2.810090e+001 8.186404e+001 -6.262942e+000 -1.045210e+002 -6.188715e+000 -1.050101e+002 -1.122426e+001 1.779336e+002
1082360000 -2.785295e+001 8.140919e+001 -6.242897e+000 -1.053369e+002 -6.184453e+000 -1.058900e+002 -1.126869e+001 1.782898e+002
1084240000 -2.758847e+001 8.119051e+001 -6.246192e+000 -1.061618e+002 -6.191237e+000 -1.067130e+002 -1.129191e+001 1.785899e+002
1086120000 -2.737306e+001 8.074010e+001 -6.214412e+000 -1.069978e+002 -6.178564e+000 -1.075771e+002 -1.132789e+001 1.788859e+002
1088000000 -2.716138e+001 8.039539e+001 -6.205806e+000 -1.079201e+002 -6.178652e+000 -1.084643e+002 -1.132543e+001 1.791697e+002
1089880000 -2.698054e+001 7.993633e+001 -6.185469e+000 -1.087031e+002 -6.185020e+000 -1.093038e+002 -1.136489e+001 1.794839e+002
1091760000 -2.675312e+001 7.955214e+001 -6.181299e+000 -1.096492e+002 -6.181207e+000 -1.101502e+002 -1.137603e+001 1.799195e+002
1093640000 -2.657587e+001 7.906749e+001 -6.168575e+000 -1.104922e+002 -6.196691e+000 -1.111140e+002 -1.139002e+001 -1.798442e+002
1095520000 -2.642877e+001 7.846873e+001 -6.140604e+000 -1.115105e+002 -6.196721e+000 -1.119172e+002 -1.140137e+001 -1.793781e+002
1097400000 -2.628542e+001 7.787397e+001 -6.149296e+000 -1.123854e+002 -6.205790e+000 -1.127459e+002 -1.138659e+001 -1.791442e+002
1099280000 -2.615452e+001 7.739847e+001 -6.120606e+000 -1.133649e+002 -6.207103e+000 -1.135686e+002 -1.138350e+001 -1.787130e+002
1101160000 -2.601520e+001 7.693407e+001 -6.142358e+000 -1.143011e+002 -6.204787e+000 -1.145420e+002 -1.138212e+001 -1.783298e+002
1103040000 -2.587068e+001 7.618578e+001 -6.131354e+000 -1.152439e+002 -6.220040e+000 -1.153497e+002 -1.138459e+001 -1.779865e+002
1104920000 -2.579296e+001 7.585822e+001 -6.147439e+000 -1.162864e+002 -6.219460e+000 -1.161785e+002 -1.134190e+001 -1.775175e+002
1106800000 -2.565946e+001 7.506136e+001 -6.145371e+000 -1.172251e+002 -6.210605e+000 -1.170299e+002 -1.132770e+001 -1.772115e+002
1108680000 -2.556411e+001 7.449007e+001 -6.151926e+000 -1.182376e+002 -6.218602e+000 -1.177624e+002 -1.130282e+001 -1.768498e+002
1110560000 -2.548635e+001 7.384679e+001 -6.172853e+000 -1.190307e+002 -6.226590e+000 -1.186411e+002 -1.127896e+001 -1.765154e+002
1112440000 -2.540136e+001 7.318800e+001 -6.196476e+000 -1.201037e+002 -6.209526e+000 -1.193559e+002 -1.121514e+001 -1.760853e+002
1114320000 -2.530577e+001 7.243244e+001 -6.202398e+000 -1.208675e+002 -6.215315e+000 -1.203220e+002 -1.116097e+001 -1.759206e+002
1116200000 -2.522191e+001 7.167583e+001 -6.214312e+000 -1.217068e+002 -6.218047e+000 -1.211125e+002 -1.116105e+001 -1.753826e+002
1118080000 -2.517666e+001 7.115730e+001 -6.252726e+000 -1.226786e+002 -6.226707e+000 -1.219035e+002 -1.110740e+001 -1.750617e+002
1119960000 -2.514135e+001 7.039752e+001 -6.265683e+000 -1.234054e+002 -6.213515e+000 -1.227375e+002 -1.104565e+001 -1.746964e+002
1121840000 -2.508238e+001 6.974046e+001 -6.292459e+000 -1.243311e+002 -6.204717e+000 -1.235430e+002 -1.098636e+001 -1.743991e+002
1123720000 -2.503092e+001 6.891169e+001 -6.311921e+000 -1.249492e+002 -6.203977e+000 -1.244020e+002 -1.092877e+001 -1.741163e+002
1125600000 -2.502365e+001 6.813813e+001 -6.327382e+000 -1.258097e+002 -6.186460e+000 -1.252927e+002 -1.085519e+001 -1.739029e+002
1127480000 -2.497434e+001 6.753770e+001 -6.337461e+000 -1.264430e+002 -6.183108e+000 -1.261325e+002 -1.080325e+001 -1.735298e+002
1129360000 -2.492310e+001 6.657732e+001 -6.328175e+000 -1.272231e+002 -6.184883e+000 -1.270460e+002 -1.072161e+001 -1.733306e+002
1131240000 -2.491604e+001 6.593019e+001 -6.343031e+000 -1.279218e+002 -6.189172e+000 -1.279263e+002 -1.065710e+001 -1.731685e+002
1133120000 -2.488025e+001 6.519164e+001 -6.327882e+000 -1.286570e+002 -6.189173e+000 -1.287743e+002 -1.057800e+001 -1.729632e+002
1135000000 -2.489618e+001 6.439647e+001 -6.340756e+000 -1.293996e+002 -6.182001e+000 -1.296564e+002 -1.048677e+001 -1.727317e+002
1136880000 -2.488094e+001 6.375026e+001 -6.322527e+000 -1.299620e+002 -6.183929e+000 -1.305209e+002 -1.041183e+001 -1.725816e+002
1138760000 -2.488284e+001 6.293341e+001 -6.310013e+000 -1.308786e+002 -6.185878e+000 -1.313074e+002 -1.032002e+001 -1.724977e+002
1140640000 -2.490100e+001 6.207143e+001 -6.293517e+000 -1.314981e+002 -6.191835e+000 -1.322700e+002 -1.024011e+001 -1.723127e+002
1142520000 -2.491220e+001 6.128426e+001 -6.272808e+000 -1.324373e+002 -6.183020e+000 -1.331173e+002 -1.014086e+001 -1.722643e+002
1144400000 -2.491896e+001 6.041245e+001 -6.260993e+000 -1.331637e+002 -6.182316e+000 -1.340461e+002 -1.004677e+001 -1.722606e+002
1146280000 -2.494158e+001 5.960981e+001 -6.233416e+000 -1.340425e+002 -6.198954e+000 -1.349498e+002 -9.961649e+000 -1.722428e+002
1148160000 -2.498384e+001 5.877835e+001 -6.223794e+000 -1.348908e+002 -6.189331e+000 -1.357215e+002 -9.867649e+000 -1.721901e+002
1150040000 -2.503163e+001 5.802552e+001 -6.201563e+000 -1.357906e+002 -6.199102e+000 -1.366549e+002 -9.776636e+000 -1.722391e+002
1151920000 -2.506327e+001 5.723595e+001 -6.197771e+000 -1.366554e+002 -6.194353e+000 -1.374811e+002 -9.674780e+000 -1.722789e+002
1153800000 -2.511476e+001 5.630984e+001 -6.165892e+000 -1.375115e+002 -6.202552e+000 -1.383608e+002 -9.584682e+000 -1.722662e+002
1155680000 -2.516445e+001 5.547992e+001 -6.153074e+000 -1.386407e+002 -6.195278e+000 -1.391412e+002 -9.457558e+000 -1.723894e+002
1157560000 -2.523456e+001 5.473342e+001 -6.163667e+000 -1.394456e+002 -6.205286e+000 -1.400881e+002 -9.374824e+000 -1.723860e+002
1159440000 -2.532360e+001 5.390605e+001 -6.155669e+000 -1.404908e+002 -6.205000e+000 -1.408677e+002 -9.257597e+000 -1.725755e+002
1161320000 -2.538733e+001 5.310455e+001 -6.154422e+000 -1.413249e+002 -6.196620e+000 -1.417593e+002 -9.172228e+000 -1.727634e+002
1163200000 -2.546389e+001 5.215281e+001 -6.149353e+000 -1.423273e+002 -6.208704e+000 -1.424921e+002 -9.063540e+000 -1.727832e+002
1165080000 -2.555620e+001 5.133561e+001 -6.157849e+000 -1.432659e+002 -6.215675e+000 -1.433604e+002 -8.966361e+000 -1.731111e+002
1166960000 -2.562438e+001 5.030047e+001 -6.160111e+000 -1.441558e+002 -6.214520e+000 -1.442164e+002 -8.859838e+000 -1.732122e+002
1168840000 -2.576678e+001 4.945475e+001 -6.178810e+000 -1.451597e+002 -6.212623e+000 -1.450880e+002 -8.763996e+000 -1.735137e+002
1170720000 -2.585280e+001 4.858755e+001 -6.172478e+000 -1.459814e+002 -6.218785e+000 -1.459103e+002 -8.666112e+000 -1.736462e+002
1172600000 -2.595929e+001 4.761744e+001 -6.199908e+000 -1.469670e+002 -6.191763e+000 -1.466872e+002 -8.546622e+000 -1.739558e+002
1174480000 -2.609321e+001 4.665788e+001 -6.196014e+000 -1.478899e+002 -6.216077e+000 -1.476309e+002 -8.470848e+000 -1.742422e+002
1176360000 -2.620928e+001 4.563562e+001 -6.207352e+000 -1.488067e+002 -6.205919e+000 -1.484156e+002 -8.344786e+000 -1.745195e+002
1178240000 -2.631223e+001 4.498667e+001 -6.243264e+000 -1.496012e+002 -6.205147e+000 -1.494038e+002 -8.263904e+000 -1.749420e+002
1180120000 -2.647493e+001 4.381509e+001 -6.221711e+000 -1.505606e+002 -6.201026e+000 -1.500210e+002 -8.154210e+000 -1.750580e+002
1182000000 -2.660929e+001 4.295110e+001 -6.257300e+000 -1.514469e+002 -6.212043e+000 -1.509165e+002 -8.052679e+000 -1.754622e+002
