!Agilent Technologies,E8358A,US41080382,A.04.25
!Agilent E8358A: A.04.25
!Date: Tuesday, October 25, 2016 18:48:43
!Correction: S11(Full 2 Port SOLT,1,2) S21(Full 2 Port SOLT,1,2) S12(Full 2 Port SOLT,1,2) S22(Full 2 Port SOLT,1,2) 
!S2P File: Measurements: S11, S21, S12, S22:
# Hz S  dB   R 50
900000000 -1.357951e+001 4.805071e-001 -6.358892e+000 -2.169496e+001 -6.346942e+000 -2.108080e+001 -5.987720e+000 -1.489604e+002
901880000 -1.371905e+001 -3.595434e-001 -6.381242e+000 -2.259134e+001 -6.332834e+000 -2.197699e+001 -6.007740e+000 -1.495917e+002
903760000 -1.383781e+001 -9.730486e-001 -6.405185e+000 -2.328600e+001 -6.317716e+000 -2.284206e+001 -6.066468e+000 -1.501725e+002
905640000 -1.400171e+001 -1.950095e+000 -6.415718e+000 -2.411969e+001 -6.310489e+000 -2.376961e+001 -6.085731e+000 -1.508033e+002
907520000 -1.412578e+001 -2.730688e+000 -6.406538e+000 -2.491619e+001 -6.307636e+000 -2.466761e+001 -6.144066e+000 -1.514406e+002
909400000 -1.428747e+001 -3.465609e+000 -6.421371e+000 -2.570132e+001 -6.299903e+000 -2.564495e+001 -6.171098e+000 -1.520341e+002
911280000 -1.442948e+001 -4.319245e+000 -6.411989e+000 -2.642523e+001 -6.293126e+000 -2.652677e+001 -6.217553e+000 -1.526669e+002
913160000 -1.458406e+001 -5.161173e+000 -6.403018e+000 -2.718935e+001 -6.304060e+000 -2.744748e+001 -6.275306e+000 -1.531891e+002
915040000 -1.474314e+001 -5.791327e+000 -6.397410e+000 -2.785098e+001 -6.304829e+000 -2.830295e+001 -6.313552e+000 -1.538781e+002
916920000 -1.488976e+001 -6.717324e+000 -6.371071e+000 -2.875196e+001 -6.307883e+000 -2.917409e+001 -6.359800e+000 -1.544932e+002
918800000 -1.504797e+001 -7.382262e+000 -6.366379e+000 -2.957960e+001 -6.307489e+000 -3.005132e+001 -6.398632e+000 -1.551244e+002
920680000 -1.521571e+001 -8.178326e+000 -6.331286e+000 -3.038550e+001 -6.303349e+000 -3.080977e+001 -6.440134e+000 -1.555419e+002
922560000 -1.537440e+001 -9.067068e+000 -6.319767e+000 -3.135151e+001 -6.311794e+000 -3.167874e+001 -6.481241e+000 -1.561932e+002
924440000 -1.552118e+001 -9.708454e+000 -6.294513e+000 -3.219864e+001 -6.316656e+000 -3.254631e+001 -6.521820e+000 -1.568551e+002
926320000 -1.570949e+001 -1.054388e+001 -6.278241e+000 -3.320770e+001 -6.319133e+000 -3.327446e+001 -6.580457e+000 -1.573883e+002
928200000 -1.586333e+001 -1.128865e+001 -6.281393e+000 -3.411956e+001 -6.308251e+000 -3.404502e+001 -6.619816e+000 -1.580664e+002
930080000 -1.603323e+001 -1.208923e+001 -6.264774e+000 -3.509353e+001 -6.308320e+000 -3.489540e+001 -6.673028e+000 -1.585658e+002
931960000 -1.623218e+001 -1.302457e+001 -6.268775e+000 -3.614403e+001 -6.294320e+000 -3.579966e+001 -6.702543e+000 -1.591967e+002
933840000 -1.640506e+001 -1.371048e+001 -6.278854e+000 -3.701935e+001 -6.297925e+000 -3.656981e+001 -6.764181e+000 -1.597752e+002
935720000 -1.657518e+001 -1.437290e+001 -6.300297e+000 -3.800794e+001 -6.284470e+000 -3.734710e+001 -6.797074e+000 -1.602909e+002
937600000 -1.677323e+001 -1.509570e+001 -6.303276e+000 -3.893282e+001 -6.270122e+000 -3.826742e+001 -6.855349e+000 -1.609476e+002
939480000 -1.695959e+001 -1.593386e+001 -6.327153e+000 -3.988844e+001 -6.257336e+000 -3.915884e+001 -6.891878e+000 -1.614002e+002
941360000 -1.716501e+001 -1.664868e+001 -6.344314e+000 -4.064614e+001 -6.248737e+000 -4.008974e+001 -6.941957e+000 -1.620141e+002
943240000 -1.736353e+001 -1.742939e+001 -6.366364e+000 -4.149197e+001 -6.256057e+000 -4.092696e+001 -6.984118e+000 -1.624473e+002
945120000 -1.755791e+001 -1.787053e+001 -6.399165e+000 -4.220534e+001 -6.247402e+000 -4.172968e+001 -7.038526e+000 -1.631066e+002
947000000 -1.777727e+001 -1.860646e+001 -6.404235e+000 -4.291677e+001 -6.230911e+000 -4.268900e+001 -7.093023e+000 -1.636694e+002
948880000 -1.797480e+001 -1.936231e+001 -6.419597e+000 -4.367484e+001 -6.240994e+000 -4.365045e+001 -7.116719e+000 -1.642639e+002
950760000 -1.819812e+001 -2.021621e+001 -6.415338e+000 -4.434748e+001 -6.234312e+000 -4.456644e+001 -7.186232e+000 -1.648622e+002
952640000 -1.842177e+001 -2.081037e+001 -6.428146e+000 -4.494877e+001 -6.240013e+000 -4.549431e+001 -7.222505e+000 -1.653349e+002
954520000 -1.863344e+001 -2.151319e+001 -6.406620e+000 -4.556092e+001 -6.238413e+000 -4.628567e+001 -7.295631e+000 -1.658970e+002
956400000 -1.889145e+001 -2.220510e+001 -6.386302e+000 -4.633212e+001 -6.247439e+000 -4.724585e+001 -7.338587e+000 -1.663773e+002
958280000 -1.915158e+001 -2.275039e+001 -6.364715e+000 -4.702988e+001 -6.251419e+000 -4.802829e+001 -7.388683e+000 -1.669285e+002
960160000 -1.938606e+001 -2.361596e+001 -6.322594e+000 -4.784784e+001 -6.256923e+000 -4.886605e+001 -7.439659e+000 -1.673829e+002
962040000 -1.966140e+001 -2.402933e+001 -6.310023e+000 -4.855563e+001 -6.258992e+000 -4.975269e+001 -7.489355e+000 -1.679828e+002
963920000 -1.991218e+001 -2.478330e+001 -6.273660e+000 -4.938467e+001 -6.268555e+000 -5.054161e+001 -7.559563e+000 -1.684485e+002
965800000 -2.014529e+001 -2.497482e+001 -6.247401e+000 -5.027007e+001 -6.266377e+000 -5.141257e+001 -7.593227e+000 -1.689438e+002
967680000 -2.044143e+001 -2.602350e+001 -6.198412e+000 -5.116129e+001 -6.256968e+000 -5.219302e+001 -7.659561e+000 -1.694342e+002
969560000 -2.072740e+001 -2.650836e+001 -6.171340e+000 -5.218734e+001 -6.263968e+000 -5.303925e+001 -7.712103e+000 -1.699027e+002
971440000 -2.101013e+001 -2.713704e+001 -6.152294e+000 -5.311795e+001 -6.273083e+000 -5.379979e+001 -7.774570e+000 -1.704204e+002
973320000 -2.131891e+001 -2.779449e+001 -6.144540e+000 -5.432058e+001 -6.262002e+000 -5.468129e+001 -7.830915e+000 -1.709386e+002
975200000 -2.162637e+001 -2.824789e+001 -6.143559e+000 -5.536205e+001 -6.260852e+000 -5.554707e+001 -7.882019e+000 -1.714977e+002
977080000 -2.193867e+001 -2.893501e+001 -6.132462e+000 -5.636482e+001 -6.251988e+000 -5.626827e+001 -7.948651e+000 -1.719152e+002
978960000 -2.226076e+001 -2.946498e+001 -6.145213e+000 -5.741351e+001 -6.251210e+000 -5.715202e+001 -8.010770e+000 -1.724158e+002
980840000 -2.260994e+001 -2.991496e+001 -6.146735e+000 -5.845119e+001 -6.247261e+000 -5.795036e+001 -8.061592e+000 -1.728898e+002
982720000 -2.295760e+001 -3.042452e+001 -6.175434e+000 -5.955101e+001 -6.231098e+000 -5.886183e+001 -8.123152e+000 -1.732904e+002
984600000 -2.332162e+001 -3.100310e+001 -6.203143e+000 -6.045433e+001 -6.237746e+000 -5.970005e+001 -8.214078e+000 -1.737475e+002
986480000 -2.369881e+001 -3.158431e+001 -6.229207e+000 -6.145110e+001 -6.228767e+000 -6.053809e+001 -8.254193e+000 -1.741083e+002
988360000 -2.407279e+001 -3.205149e+001 -6.257308e+000 -6.232706e+001 -6.218094e+000 -6.136273e+001 -8.322316e+000 -1.746429e+002
990240000 -2.447098e+001 -3.249618e+001 -6.291226e+000 -6.310697e+001 -6.213373e+000 -6.229324e+001 -8.370432e+000 -1.750210e+002
992120000 -2.488435e+001 -3.281240e+001 -6.319885e+000 -6.390390e+001 -6.221310e+000 -6.312594e+001 -8.443608e+000 -1.755538e+002
994000000 -2.532332e+001 -3.348013e+001 -6.342702e+000 -6.468790e+001 -6.212514e+000 -6.395522e+001 -8.516687e+000 -1.759237e+002
995880000 -2.577010e+001 -3.372470e+001 -6.365277e+000 -6.539348e+001 -6.224420e+000 -6.494414e+001 -8.569095e+000 -1.764120e+002
997760000 -2.624696e+001 -3.400378e+001 -6.373546e+000 -6.604159e+001 -6.211552e+000 -6.592104e+001 -8.644424e+000 -1.767804e+002
999640000 -2.669486e+001 -3.444788e+001 -6.391773e+000 -6.675102e+001 -6.227545e+000 -6.675356e+001 -8.705709e+000 -1.773099e+002
1001520000 -2.720545e+001 -3.479408e+001 -6.381282e+000 -6.749223e+001 -6.228926e+000 -6.757439e+001 -8.782139e+000 -1.776552e+002
1003400000 -2.773534e+001 -3.492514e+001 -6.397576e+000 -6.808423e+001 -6.228843e+000 -6.835686e+001 -8.838620e+000 -1.779412e+002
1005280000 -2.829665e+001 -3.494879e+001 -6.381330e+000 -6.879597e+001 -6.235714e+000 -6.922649e+001 -8.924873e+000 -1.784163e+002
1007160000 -2.887613e+001 -3.487058e+001 -6.361654e+000 -6.953738e+001 -6.235078e+000 -7.008495e+001 -8.989832e+000 -1.786927e+002
1009040000 -2.948189e+001 -3.497402e+001 -6.351341e+000 -7.024259e+001 -6.235892e+000 -7.098029e+001 -9.059964e+000 -1.790804e+002
1010920000 -3.008972e+001 -3.459732e+001 -6.328897e+000 -7.096006e+001 -6.241216e+000 -7.179849e+001 -9.147914e+000 -1.794175e+002
1012800000 -3.080605e+001 -3.439343e+001 -6.306498e+000 -7.180450e+001 -6.237607e+000 -7.267069e+001 -9.208480e+000 -1.797740e+002
1014680000 -3.150819e+001 -3.393008e+001 -6.295755e+000 -7.257021e+001 -6.237131e+000 -7.341367e+001 -9.285134e+000 1.798822e+002
1016560000 -3.223256e+001 -3.324669e+001 -6.278879e+000 -7.351343e+001 -6.246892e+000 -7.429093e+001 -9.337036e+000 1.797138e+002
1018440000 -3.301276e+001 -3.221669e+001 -6.247759e+000 -7.434747e+001 -6.237825e+000 -7.513644e+001 -9.440196e+000 1.794104e+002
1020320000 -3.384355e+001 -3.102321e+001 -6.230008e+000 -7.526845e+001 -6.245252e+000 -7.606596e+001 -9.497922e+000 1.790315e+002
1022200000 -3.465647e+001 -2.866116e+001 -6.232120e+000 -7.612130e+001 -6.255394e+000 -7.685042e+001 -9.586841e+000 1.787914e+002
1024080000 -3.560929e+001 -2.635615e+001 -6.202885e+000 -7.703063e+001 -6.244414e+000 -7.774425e+001 -9.667233e+000 1.785586e+002
1025960000 -3.658638e+001 -2.246166e+001 -6.214677e+000 -7.802989e+001 -6.249034e+000 -7.852489e+001 -9.738702e+000 1.782844e+002
1027840000 -3.763583e+001 -1.888461e+001 -6.206743e+000 -7.901890e+001 -6.253575e+000 -7.934283e+001 -9.818259e+000 1.780579e+002
1029720000 -3.875147e+001 -1.291347e+001 -6.207498e+000 -7.996207e+001 -6.244725e+000 -8.023042e+001 -9.883647e+000 1.778338e+002
1031600000 -3.968662e+001 -4.691848e+000 -6.200787e+000 -8.087006e+001 -6.251540e+000 -8.105872e+001 -9.971502e+000 1.776089e+002
1033480000 -4.048588e+001 3.804660e+000 -6.203171e+000 -8.175056e+001 -6.243829e+000 -8.182100e+001 -1.006784e+001 1.774941e+002
1035360000 -4.113008e+001 1.482989e+001 -6.199512e+000 -8.265178e+001 -6.256737e+000 -8.275036e+001 -1.015002e+001 1.773340e+002
1037240000 -4.123648e+001 2.683069e+001 -6.220446e+000 -8.355882e+001 -6.244398e+000 -8.358642e+001 -1.022047e+001 1.771547e+002
1039120000 -4.093399e+001 3.788748e+001 -6.207782e+000 -8.444115e+001 -6.253429e+000 -8.441219e+001 -1.029193e+001 1.771079e+002
1041000000 -4.038944e+001 4.866507e+001 -6.224560e+000 -8.535248e+001 -6.250158e+000 -8.525207e+001 -1.036781e+001 1.770162e+002
1042880000 -3.952653e+001 5.616571e+001 -6.230268e+000 -8.623491e+001 -6.251624e+000 -8.611671e+001 -1.045180e+001 1.767277e+002
1044760000 -3.857142e+001 6.261097e+001 -6.254114e+000 -8.710468e+001 -6.261314e+000 -8.695290e+001 -1.053608e+001 1.767695e+002
1046640000 -3.767313e+001 6.776864e+001 -6.240877e+000 -8.805709e+001 -6.271941e+000 -8.776235e+001 -1.060810e+001 1.768897e+002
1048520000 -3.674709e+001 7.151084e+001 -6.246958e+000 -8.882144e+001 -6.269907e+000 -8.866159e+001 -1.070367e+001 1.767022e+002
1050400000 -3.600941e+001 7.442552e+001 -6.256279e+000 -8.970696e+001 -6.264229e+000 -8.943414e+001 -1.077349e+001 1.767318e+002
1052280000 -3.515030e+001 7.670969e+001 -6.274103e+000 -9.052166e+001 -6.272762e+000 -9.027824e+001 -1.085237e+001 1.767467e+002
1054160000 -3.442209e+001 7.868995e+001 -6.278735e+000 -9.149735e+001 -6.270064e+000 -9.109925e+001 -1.092373e+001 1.768361e+002
1056040000 -3.375774e+001 7.978648e+001 -6.281010e+000 -9.222467e+001 -6.280425e+000 -9.190511e+001 -1.101214e+001 1.768403e+002
1057920000 -3.313491e+001 8.079580e+001 -6.298205e+000 -9.304504e+001 -6.275476e+000 -9.279668e+001 -1.108794e+001 1.769109e+002
1059800000 -3.253219e+001 8.138681e+001 -6.307504e+000 -9.388723e+001 -6.266760e+000 -9.364180e+001 -1.114652e+001 1.770865e+002
1061680000 -3.199115e+001 8.195016e+001 -6.319629e+000 -9.472558e+001 -6.279243e+000 -9.433098e+001 -1.122976e+001 1.772391e+002
1063560000 -3.153533e+001 8.237888e+001 -6.339540e+000 -9.548344e+001 -6.267872e+000 -9.524126e+001 -1.130160e+001 1.772639e+002
1065440000 -3.104419e+001 8.251640e+001 -6.324711e+000 -9.629386e+001 -6.283651e+000 -9.606997e+001 -1.138543e+001 1.775013e+002
1067320000 -3.059022e+001 8.267114e+001 -6.353848e+000 -9.704983e+001 -6.264506e+000 -9.688369e+001 -1.143599e+001 1.777393e+002
1069200000 -3.016161e+001 8.288087e+001 -6.336370e+000 -9.785690e+001 -6.273385e+000 -9.771121e+001 -1.151595e+001 1.778816e+002
1071080000 -2.982969e+001 8.291995e+001 -6.348126e+000 -9.866619e+001 -6.263432e+000 -9.859138e+001 -1.157444e+001 1.782054e+002
1072960000 -2.943818e+001 8.265268e+001 -6.356655e+000 -9.940366e+001 -6.270571e+000 -9.947527e+001 -1.164605e+001 1.785335e+002
1074840000 -2.914583e+001 8.248746e+001 -6.365799e+000 -1.001184e+002 -6.261343e+000 -1.002289e+002 -1.168571e+001 1.787573e+002
1076720000 -2.883216e+001 8.230505e+001 -6.364829e+000 -1.009234e+002 -6.257712e+000 -1.011134e+002 -1.175902e+001 1.790375e+002
1078600000 -2.849755e+001 8.197871e+001 -6.351098e+000 -1.017593e+002 -6.269796e+000 -1.019371e+002 -1.179714e+001 1.794920e+002
1080480000 -2.818491e+001 8.177273e+001 -6.344547e+000 -1.024781e+002 -6.266995e+000 -1.027941e+002 -1.186145e+001 1.798688e+002
1082360000 -2.795983e+001 8.144231e+001 -6.319617e+000 -1.032193e+002 -6.268042e+000 -1.036801e+002 -1.189426e+001 -1.798766e+002
1084240000 -2.769369e+001 8.106712e+001 -6.315005e+000 -1.040259e+002 -6.257872e+000 -1.045307e+002 -1.193319e+001 -1.794792e+002
1086120000 -2.749493e+001 8.061630e+001 -6.307994e+000 -1.048507e+002 -6.269903e+000 -1.053497e+002 -1.198731e+001 -1.790356e+002
1088000000 -2.729132e+001 8.026432e+001 -6.297460e+000 -1.056582e+002 -6.262062e+000 -1.062069e+002 -1.199316e+001 -1.785762e+002
1089880000 -2.707044e+001 7.981702e+001 -6.286327e+000 -1.064297e+002 -6.271260e+000 -1.071083e+002 -1.204090e+001 -1.782096e+002
1091760000 -2.687618e+001 7.928601e+001 -6.268942e+000 -1.073377e+002 -6.282028e+000 -1.078619e+002 -1.205708e+001 -1.777589e+002
1093640000 -2.668690e+001 7.886494e+001 -6.262389e+000 -1.082473e+002 -6.265865e+000 -1.087973e+002 -1.206890e+001 -1.773152e+002
1095520000 -2.654236e+001 7.834781e+001 -6.242800e+000 -1.091870e+002 -6.276659e+000 -1.095652e+002 -1.209385e+001 -1.767179e+002
1097400000 -2.640149e+001 7.749767e+001 -6.240438e+000 -1.100517e+002 -6.286310e+000 -1.103761e+002 -1.208927e+001 -1.764014e+002
1099280000 -2.625905e+001 7.708559e+001 -6.224545e+000 -1.110471e+002 -6.302780e+000 -1.112479e+002 -1.211173e+001 -1.758754e+002
1101160000 -2.611135e+001 7.664658e+001 -6.231441e+000 -1.119398e+002 -6.285706e+000 -1.120871e+002 -1.209451e+001 -1.753515e+002
1103040000 -2.596247e+001 7.594500e+001 -6.229063e+000 -1.128335e+002 -6.309979e+000 -1.129277e+002 -1.208799e+001 -1.748884e+002
1104920000 -2.587723e+001 7.540370e+001 -6.237873e+000 -1.138025e+002 -6.306275e+000 -1.136513e+002 -1.207496e+001 -1.744377e+002
1106800000 -2.576244e+001 7.460708e+001 -6.240149e+000 -1.148416e+002 -6.289636e+000 -1.145824e+002 -1.204110e+001 -1.738924e+002
1108680000 -2.562036e+001 7.395945e+001 -6.243368e+000 -1.156912e+002 -6.301666e+000 -1.153398e+002 -1.202545e+001 -1.733527e+002
1110560000 -2.556692e+001 7.348180e+001 -6.250826e+000 -1.165905e+002 -6.314561e+000 -1.162081e+002 -1.200297e+001 -1.728812e+002
1112440000 -2.546885e+001 7.272276e+001 -6.275357e+000 -1.175434e+002 -6.309505e+000 -1.168357e+002 -1.194912e+001 -1.724408e+002
1114320000 -2.537024e+001 7.187909e+001 -6.290938e+000 -1.182388e+002 -6.300036e+000 -1.177122e+002 -1.191117e+001 -1.720372e+002
1116200000 -2.529465e+001 7.135424e+001 -6.298262e+000 -1.192100e+002 -6.309789e+000 -1.185834e+002 -1.187194e+001 -1.716682e+002
1118080000 -2.523427e+001 7.046043e+001 -6.317290e+000 -1.200759e+002 -6.300497e+000 -1.193008e+002 -1.181653e+001 -1.709871e+002
1119960000 -2.517664e+001 6.981512e+001 -6.341480e+000 -1.208660e+002 -6.301452e+000 -1.202693e+002 -1.176567e+001 -1.706169e+002
1121840000 -2.511772e+001 6.929308e+001 -6.372901e+000 -1.216535e+002 -6.299090e+000 -1.209098e+002 -1.170412e+001 -1.702583e+002
1123720000 -2.508153e+001 6.839722e+001 -6.388128e+000 -1.224065e+002 -6.283757e+000 -1.218124e+002 -1.163815e+001 -1.697774e+002
1125600000 -2.503765e+001 6.774501e+001 -6.403390e+000 -1.231778e+002 -6.287206e+000 -1.225804e+002 -1.157947e+001 -1.693495e+002
1127480000 -2.498906e+001 6.698862e+001 -6.409834e+000 -1.239093e+002 -6.273441e+000 -1.234854e+002 -1.149734e+001 -1.691168e+002
1129360000 -2.496068e+001 6.617981e+001 -6.417635e+000 -1.246332e+002 -6.287820e+000 -1.242845e+002 -1.142327e+001 -1.686533e+002
1131240000 -2.492742e+001 6.545107e+001 -6.408501e+000 -1.252985e+002 -6.271289e+000 -1.251862e+002 -1.132280e+001 -1.684033e+002
1133120000 -2.490503e+001 6.474753e+001 -6.416218e+000 -1.259857e+002 -6.280059e+000 -1.260538e+002 -1.125323e+001 -1.681415e+002
1135000000 -2.490068e+001 6.398996e+001 -6.420835e+000 -1.266989e+002 -6.256781e+000 -1.268686e+002 -1.114948e+001 -1.677276e+002
1136880000 -2.489115e+001 6.329525e+001 -6.409600e+000 -1.273811e+002 -6.269926e+000 -1.277827e+002 -1.105770e+001 -1.676670e+002
1138760000 -2.489490e+001 6.246333e+001 -6.405016e+000 -1.281192e+002 -6.269025e+000 -1.284864e+002 -1.096367e+001 -1.674372e+002
1140640000 -2.491665e+001 6.160385e+001 -6.388541e+000 -1.288768e+002 -6.274076e+000 -1.294494e+002 -1.088186e+001 -1.672012e+002
1142520000 -2.491373e+001 6.082720e+001 -6.378595e+000 -1.296905e+002 -6.278828e+000 -1.302443e+002 -1.077611e+001 -1.671211e+002
1144400000 -2.494285e+001 6.009941e+001 -6.358062e+000 -1.304163e+002 -6.270140e+000 -1.311927e+002 -1.067630e+001 -1.670158e+002
1146280000 -2.495833e+001 5.937545e+001 -6.343923e+000 -1.312557e+002 -6.285192e+000 -1.321404e+002 -1.056528e+001 -1.668937e+002
1148160000 -2.498684e+001 5.832726e+001 -6.307586e+000 -1.320694e+002 -6.274925e+000 -1.328093e+002 -1.046026e+001 -1.667698e+002
1150040000 -2.502658e+001 5.754486e+001 -6.306551e+000 -1.329765e+002 -6.288823e+000 -1.337419e+002 -1.036735e+001 -1.667248e+002
1151920000 -2.506992e+001 5.668196e+001 -6.291224e+000 -1.338155e+002 -6.279298e+000 -1.345521e+002 -1.023722e+001 -1.667696e+002
1153800000 -2.511426e+001 5.584576e+001 -6.271972e+000 -1.346939e+002 -6.281579e+000 -1.354995e+002 -1.015336e+001 -1.668111e+002
1155680000 -2.517668e+001 5.532008e+001 -6.268431e+000 -1.355717e+002 -6.290129e+000 -1.361385e+002 -1.002822e+001 -1.667040e+002
1157560000 -2.523236e+001 5.429650e+001 -6.245704e+000 -1.364995e+002 -6.289767e+000 -1.370411e+002 -9.934657e+000 -1.668324e+002
1159440000 -2.532326e+001 5.351524e+001 -6.249799e+000 -1.374728e+002 -6.294178e+000 -1.378084e+002 -9.807403e+000 -1.667848e+002
1161320000 -2.538306e+001 5.273772e+001 -6.242074e+000 -1.383200e+002 -6.283592e+000 -1.387062e+002 -9.719644e+000 -1.669950e+002
1163200000 -2.547592e+001 5.176209e+001 -6.242623e+000 -1.393343e+002 -6.307493e+000 -1.395046e+002 -9.598667e+000 -1.670480e+002
1165080000 -2.553120e+001 5.100781e+001 -6.240736e+000 -1.401711e+002 -6.288657e+000 -1.402418e+002 -9.468294e+000 -1.672790e+002
1166960000 -2.562868e+001 4.991289e+001 -6.244659e+000 -1.410899e+002 -6.292290e+000 -1.411081e+002 -9.377399e+000 -1.673908e+002
1168840000 -2.575615e+001 4.908346e+001 -6.253122e+000 -1.420113e+002 -6.299378e+000 -1.419367e+002 -9.274724e+000 -1.676205e+002
1170720000 -2.586832e+001 4.825130e+001 -6.262906e+000 -1.428797e+002 -6.296010e+000 -1.427805e+002 -9.177822e+000 -1.677471e+002
1172600000 -2.596726e+001 4.733838e+001 -6.277135e+000 -1.438559e+002 -6.289018e+000 -1.435536e+002 -9.044731e+000 -1.680002e+002
1174480000 -2.607803e+001 4.635104e+001 -6.282525e+000 -1.447197e+002 -6.283433e+000 -1.444738e+002 -8.938633e+000 -1.683636e+002
1176360000 -2.620873e+001 4.543200e+001 -6.287598e+000 -1.456216e+002 -6.297082e+000 -1.452151e+002 -8.832911e+000 -1.685996e+002
1178240000 -2.635355e+001 4.455907e+001 -6.312527e+000 -1.463817e+002 -6.287811e+000 -1.461442e+002 -8.723416e+000 -1.689240e+002
1180120000 -2.649247e+001 4.359047e+001 -6.295051e+000 -1.473227e+002 -6.281963e+000 -1.469789e+002 -8.608473e+000 -1.691323e+002
1182000000 -2.659522e+001 4.273513e+001 -6.329793e+000 -1.481925e+002 -6.289857e+000 -1.476186e+002 -8.489048e+000 -1.694051e+002
